RTDS Simulation, 0,1999
16,13A,3D
1,S1) N1,,,kV,0.00595434,-195.109,0,0,65535,1.0,1.0,P
2,S1) N2,,,kV,0.00595429,-195.107,0,0,65535,1.0,1.0,P
3,S1) N3,,,kV,0.0059544,-195.111,0,0,65535,1.0,1.0,P
4,S1) N4,,,kV,0.00596825,-195.565,0,0,65535,1.0,1.0,P
5,S1) N5,,,kV,0.00596836,-195.568,0,0,65535,1.0,1.0,P
6,S1) N6,,,kV,0.00596839,-195.569,0,0,65535,1.0,1.0,P
7,IBUR1A,,,Amps,1.00255E-5,-0.32851,0,0,65535,1.0,1.0,P
8,IBUR1B,,,Amps,1.00256E-5,-0.328514,0,0,65535,1.0,1.0,P
9,IBUR1C,,,Amps,1.00257E-5,-0.328517,0,0,65535,1.0,1.0,P
10,IBUR2A,,,Amps,1.01711E-5,-0.333281,0,0,65535,1.0,1.0,P
11,IBUR2B,,,Amps,1.01713E-5,-0.333288,0,0,65535,1.0,1.0,P
12,IBUR2C,,,Amps,1.01712E-5,-0.333286,0,0,65535,1.0,1.0,P
13,3I0BRK1,,,,8.18558E-12,-2.45869E-7,0,0,65535,1.0,1.0,P
1,FLTAPPLY1,0,,0
2,Trip1,0,,0
3,Trip2,0,,0
50.0
1
20000.0,40000
09/10/2018,08:41:02.673000
09/10/2018,08:41:03.073000
ASCII
1
1,0,40274,1390,56636,42180,879,55242,21873,64978,11451,46449,141,51711,24575,0,0,0
2,50,40774,1246,56281,42672,764,54865,21389,65068,11845,46915,97,51289,30036,0,0,0
3,100,41272,1109,55919,43162,658,54482,20908,65151,12243,47378,61,50862,37318,0,0,0
4,150,41768,980,55552,43648,559,54094,20429,65225,12647,47837,34,50431,37318,0,0,0
5,200,42262,859,55180,44133,468,53700,19954,65292,13056,48292,14,49995,31857,0,0,0
6,250,42754,746,54801,44614,386,53302,19482,65350,13469,48743,3,49555,28216,0,0,0
7,300,43243,640,54418,45092,311,52898,19013,65401,13888,49191,0,49111,24575,0,0,0
8,350,43729,543,54029,45568,244,52490,18548,65443,14311,49634,4,48663,33677,0,0,0
9,400,44213,454,53634,46040,185,52076,18086,65478,14738,50073,17,48211,22755,0,0,0
10,450,44693,372,53235,46509,134,51658,17627,65504,15170,50508,38,47756,24575,0,0,0
11,500,45171,299,52831,46974,92,51235,17173,65522,15606,50939,67,47296,26396,0,0,0
12,550,45646,233,52421,47436,57,50808,16722,65532,16047,51365,104,46833,28216,0,0,0
13,600,46118,176,52007,47895,31,50376,16275,65535,16492,51786,149,46367,35498,0,0,0
14,650,46586,126,51588,48350,12,49940,15832,65529,16940,52203,202,45897,31857,0,0,0
15,700,47051,85,51164,48800,2,49499,15394,65514,17393,52615,264,45424,24575,0,0,0
16,750,47513,52,50736,49247,0,49054,14959,65492,17849,53022,333,44947,28216,0,0,0
17,800,47971,27,50303,49690,5,48606,14530,65462,18309,53424,410,44468,30036,0,0,0
18,850,48425,10,49867,50129,19,48153,14104,65424,18773,53821,495,43986,26396,0,0,0
19,900,48875,0,49425,50563,41,47697,13683,65377,19240,54213,589,43501,19114,0,0,0
20,950,49321,0,48980,50993,71,47237,13267,65323,19710,54600,690,43014,24575,0,0,0
21,1000,49763,7,48531,51419,109,46773,12856,65260,20184,54981,799,42523,24575,0,0,0
22,1050,50201,22,48078,51840,155,46306,12450,65190,20661,55356,916,42031,35498,0,0,0
23,1100,50635,45,47621,52256,210,45836,12048,65111,21140,55726,1041,41536,33677,0,0,0
24,1150,51064,77,47160,52667,272,45362,11652,65025,21623,56091,1173,41039,24575,0,0,0
25,1200,51489,116,46696,53074,342,44886,11261,64931,22108,56449,1314,40540,26396,0,0,0
26,1250,51909,163,46228,53475,420,44406,10876,64828,22596,56802,1462,40039,42779,0,0,0
27,1300,52324,219,45757,53871,507,43923,10495,64718,23086,57149,1618,39536,30947,0,0,0
28,1350,52735,283,45283,54263,601,43438,10120,64600,23579,57490,1781,39032,28216,0,0,0
29,1400,53140,354,44806,54648,703,42950,9751,64474,24074,57825,1952,38526,24575,0,0,0
30,1450,53541,434,44326,55029,813,42460,9388,64340,24572,58153,2131,38018,27306,0,0,0
31,1500,53937,521,43843,55404,931,41967,9030,64198,25071,58476,2318,37510,34587,0,0,0
32,1550,54327,617,43357,55773,1057,41472,8678,64049,25572,58792,2512,37000,37318,0,0,0
33,1600,54712,720,42869,56137,1190,40975,8332,63892,26076,59101,2713,36489,29126,0,0,0
34,1650,55091,832,42378,56495,1332,40475,7992,63727,26580,59404,2922,35977,30036,0,0,0
35,1700,55465,951,41885,56847,1481,39974,7658,63555,27086,59701,3138,35464,30036,0,0,0
36,1750,55834,1078,41389,57193,1638,39471,7331,63375,27594,59991,3361,34951,29581,0,0,0
37,1800,56196,1213,40892,57533,1802,38966,7009,63187,28103,60274,3592,34437,35043,0,0,0
38,1850,56553,1355,40392,57867,1974,38460,6694,62992,28613,60550,3830,33923,29581,0,0,0
39,1900,56904,1506,39890,58195,2154,37953,6386,62790,29124,60820,4075,33408,31857,0,0,0
40,1950,57250,1664,39387,58516,2341,37444,6084,62580,29636,61082,4327,32894,41414,0,0,0
41,2000,57589,1830,38882,58831,2536,36934,5788,62362,30149,61338,4586,32379,46420,0,0,0
42,2050,57922,2003,38376,59140,2739,36423,5499,62138,30662,61586,4852,31864,25485,0,0,0
43,2100,58248,2184,37868,59442,2948,35911,5217,61906,31176,61828,5125,31350,28216,0,0,0
44,2150,58569,2373,37359,59738,3165,35398,4942,61667,31690,62062,5405,30836,19683,0,0,0
45,2200,58883,2569,36849,60027,3390,34885,4674,61421,32205,62289,5692,30322,28216,0,0,0
46,2250,59190,2773,36338,60309,3621,34371,4412,61168,32720,62509,5985,29809,33933,0,0,0
47,2300,59492,2984,35826,60585,3860,33857,4158,60907,33234,62721,6285,29297,30719,0,0,0
48,2350,59786,3202,35313,60853,4106,33342,3910,60640,33749,62926,6591,28786,29012,0,0,0
49,2400,60074,3427,34799,61115,4359,32827,3670,60366,34263,63124,6904,28275,43007,0,0,0
50,2450,60355,3660,34285,61370,4619,32313,3437,60085,34777,63314,7223,27766,43234,0,0,0
51,2500,60629,3900,33771,61617,4886,31798,3211,59798,35291,63496,7549,27258,36408,0,0,0
52,2550,60897,4147,33257,61858,5160,31284,2992,59503,35804,63671,7881,26751,28216,0,0,0
53,2600,61157,4402,32742,62091,5441,30770,2781,59202,36316,63838,8219,26246,36408,0,0,0
54,2650,61411,4663,32227,62317,5728,30256,2577,58895,36827,63998,8563,25742,33222,0,0,0
55,2700,61657,4931,31713,62536,6022,29744,2381,58581,37337,64150,8912,25241,39139,0,0,0
56,2750,61897,5206,31198,62747,6323,29231,2192,58261,37846,64294,9268,24741,34132,0,0,0
57,2800,62129,5488,30684,62951,6630,28720,2010,57935,38354,64431,9630,24243,34587,0,0,0
58,2850,62354,5776,30171,63148,6944,28210,1837,57602,38861,64559,9997,23747,35498,0,0,0
59,2900,62571,6071,29658,63337,7264,27701,1671,57263,39366,64680,10370,23253,41869,0,0,0
60,2950,62781,6373,29146,63519,7590,27193,1512,56918,39869,64793,10748,22761,34587,0,0,0
61,3000,62984,6681,28635,63693,7923,26686,1361,56567,40371,64898,11132,22273,30036,0,0,0
62,3050,63180,6996,28125,63859,8261,26181,1218,56211,40870,64995,11521,21786,34587,0,0,0
63,3100,63367,7317,27616,64018,8606,25678,1083,55848,41368,65084,11916,21303,37318,0,0,0
64,3150,63548,7645,27109,64169,8957,25176,956,55480,41864,65165,12315,20822,36408,0,0,0
65,3200,63720,7978,26602,64312,9313,24677,836,55106,42357,65238,12720,20344,30947,0,0,0
66,3250,63886,8318,26098,64447,9675,24179,724,54727,42848,65303,13130,19869,38228,0,0,0
67,3300,64043,8664,25594,64575,10044,23683,621,54342,43337,65361,13544,19398,28216,0,0,0
68,3350,64193,9015,25093,64695,10417,23190,525,53952,43822,65410,13963,18930,35498,0,0,0
69,3400,64335,9373,24594,64807,10796,22699,437,53557,44306,65451,14387,18465,42779,0,0,0
70,3450,64469,9736,24096,64911,11181,22210,357,53157,44786,65484,14815,18003,31857,0,0,0
71,3500,64595,10105,23601,65007,11571,21724,285,52751,45263,65508,15248,17546,28216,0,0,0
72,3550,64713,10480,23108,65095,11966,21241,221,52341,45738,65525,15685,17092,30036,0,0,0
73,3600,64824,10860,22617,65175,12366,20761,165,51926,46209,65534,16126,16642,26396,0,0,0
74,3650,64927,11245,22129,65247,12771,20283,118,51506,46676,65535,16572,16196,30036,0,0,0
75,3700,65021,11636,21644,65311,13182,19809,78,51082,47141,65527,17021,15754,33677,0,0,0
76,3750,65108,12032,21161,65367,13597,19338,46,50653,47601,65512,17474,15316,30036,0,0,0
77,3800,65187,12433,20681,65415,14016,18870,23,50219,48059,65488,17931,14882,31857,0,0,0
78,3850,65258,12839,20204,65455,14441,18406,7,49781,48512,65456,18392,14453,39139,0,0,0
79,3900,65321,13250,19730,65487,14870,17945,0,49339,48961,65416,18856,14029,40959,0,0,0
80,3950,65375,13666,19260,65511,15303,17488,0,48893,49407,65369,19324,13609,37318,0,0,0
81,4000,65422,14087,18793,65527,15741,17034,9,48443,49848,65313,19795,13194,37318,0,0,0
82,4050,65461,14512,18329,65535,16183,16585,26,47990,50285,65249,20269,12783,30036,0,0,0
83,4100,65491,14941,17868,65534,16629,16139,51,47532,50718,65177,20746,12378,33677,0,0,0
84,4150,65514,15375,17412,65526,17079,15698,83,47071,51146,65097,21227,11977,35498,0,0,0
85,4200,65528,15814,16959,65509,17532,15260,124,46606,51570,65009,21710,11582,35498,0,0,0
86,4250,65535,16256,16510,65484,17990,14827,174,46138,51990,64913,22195,11192,30036,0,0,0
87,4300,65533,16703,16065,65452,18451,14399,231,45666,52404,64810,22684,10807,39139,0,0,0
88,4350,65523,17154,15625,65411,18916,13975,296,45192,52814,64698,23175,10428,42779,0,0,0
89,4400,65505,17608,15188,65362,19384,13556,369,44714,53218,64578,23668,10054,37318,0,0,0
90,4450,65479,18066,14756,65305,19856,13141,450,44233,53618,64451,24163,9686,24575,0,0,0
91,4500,65445,18528,14328,65240,20330,12731,539,43750,54012,64316,24661,9323,30036,0,0,0
92,4550,65403,18993,13905,65167,20808,12327,636,43264,54402,64173,25161,8967,28216,0,0,0
93,4600,65353,19462,13486,65087,21289,11927,741,42775,54785,64022,25662,8616,30947,0,0,0
94,4650,65294,19934,13073,64998,21772,11532,854,42284,55164,63863,26166,8271,40049,0,0,0
95,4700,65228,20409,12664,64901,22258,11143,975,41790,55537,63697,26671,7932,30036,0,0,0
96,4750,65154,20887,12260,64796,22747,10759,1104,41294,55904,63523,27177,7599,26396,0,0,0
97,4800,65072,21369,11861,64683,23238,10380,1240,40796,56266,63342,27685,7273,33677,0,0,0
98,4850,64982,21853,11467,64563,23732,10007,1384,40296,56622,63153,28194,6953,39139,0,0,0
99,4900,64883,22339,11079,64434,24228,9640,1536,39794,56972,62957,28704,6639,37318,0,0,0
100,4950,64777,22828,10695,64298,24726,9278,1696,39291,57316,62753,29216,6331,30036,0,0,0
101,5000,64663,23320,10318,64154,25226,8922,1863,38785,57653,62542,29728,6031,27306,0,0,0
102,5050,64541,23814,9946,64002,25728,8572,2038,38279,57985,62323,30241,5736,20934,0,0,0
103,5100,64412,24310,9579,63843,26231,8228,2221,37771,58311,62097,30754,5449,27306,0,0,0
104,5150,64274,24809,9218,63676,26736,7890,2411,37261,58630,61864,31268,5168,35043,0,0,0
105,5200,64129,25309,8863,63501,27243,7558,2608,36751,58943,61624,31783,4894,30947,0,0,0
106,5250,63976,25811,8514,63319,27751,7232,2813,36240,59249,61376,32297,4627,20934,0,0,0
107,5300,63815,26315,8171,63129,28260,6913,3026,35727,59549,61122,32812,4366,26396,0,0,0
108,5350,63647,26820,7834,62932,28770,6600,3245,35214,59842,60860,33327,4113,31402,0,0,0
109,5400,63471,27327,7503,62727,29282,6293,3472,34701,60129,60592,33841,3867,31402,0,0,0
110,5450,63287,27835,7179,62515,29794,5993,3707,34187,60409,60317,34355,3628,38456,0,0,0
111,5500,63096,28345,6860,62295,30307,5700,3948,33672,60682,60035,34869,3396,32198,0,0,0
112,5550,62898,28855,6548,62068,30820,5413,4196,33158,60948,59746,35383,3172,30036,0,0,0
113,5600,62692,29367,6243,61834,31335,5133,4452,32643,61207,59450,35896,2954,33905,0,0,0
114,5650,62478,29879,5944,61593,31849,4860,4715,32128,61459,59148,36407,2744,36067,0,0,0
115,5700,62258,30392,5651,61345,32363,4593,4984,31614,61704,58840,36919,2542,33563,0,0,0
116,5750,62030,30906,5366,61090,32878,4334,5260,31099,61942,58525,37429,2347,25485,0,0,0
117,5800,61794,31420,5087,60827,33393,4082,5544,30586,62173,58203,37938,2159,28899,0,0,0
118,5850,61552,31934,4815,60558,33907,3836,5833,30072,62396,57876,38445,1979,30036,0,0,0
119,5900,61302,32449,4550,60282,34422,3598,6130,29560,62612,57542,38951,1807,25940,0,0,0
120,5950,61046,32964,4292,59999,34935,3367,6433,29048,62821,57202,39456,1642,23665,0,0,0
121,6000,60782,33478,4040,59709,35449,3144,6743,28537,63023,56856,39959,1485,29581,0,0,0
122,6050,60512,33993,3796,59413,35961,2927,7058,28027,63216,56504,40460,1336,27761,0,0,0
123,6100,60235,34507,3560,59110,36473,2718,7381,27518,63403,56146,40960,1194,39139,0,0,0
124,6150,59951,35021,3330,58801,36984,2517,7709,27011,63582,55783,41457,1060,36408,0,0,0
125,6200,59660,35534,3107,58485,37494,2323,8044,26505,63753,55414,41952,934,32767,0,0,0
126,6250,59363,36047,2892,58163,38003,2136,8385,26000,63916,55039,42445,816,24575,0,0,0
127,6300,59059,36558,2684,57834,38510,1957,8732,25498,64072,54659,42936,706,28216,0,0,0
128,6350,58748,37069,2484,57500,39016,1786,9085,24997,64221,54273,43424,603,28216,0,0,0
129,6400,58431,37579,2291,57159,39521,1622,9443,24498,64361,53882,43909,509,18204,0,0,0
130,6450,58108,38087,2106,56812,40024,1466,9808,24001,64494,53486,44392,423,29126,0,0,0
131,6500,57779,38595,1928,56460,40525,1317,10178,23506,64618,53085,44872,344,28216,0,0,0
132,6550,57443,39100,1758,56101,41024,1177,10553,23013,64735,52678,45348,274,35498,0,0,0
133,6600,57101,39605,1595,55737,41521,1044,10934,22523,64844,52267,45822,211,40049,0,0,0
134,6650,56754,40107,1441,55367,42016,919,11321,22035,64945,51851,46293,157,33677,0,0,0
135,6700,56400,40608,1294,54992,42508,802,11713,21550,65039,51431,46760,110,26396,0,0,0
136,6750,56041,41107,1154,54611,42998,693,12110,21068,65124,51005,47223,72,20934,0,0,0
137,6800,55675,41603,1023,54224,43486,591,12512,20589,65201,50575,47684,42,31857,0,0,0
138,6850,55305,42098,899,53833,43971,498,12919,20112,65270,50141,48140,20,28216,0,0,0
139,6900,54928,42590,783,53436,44454,412,13331,19639,65332,49703,48593,6,22755,0,0,0
140,6950,54546,43080,675,53034,44933,335,13747,19169,65385,49260,49041,0,24575,0,0,0
141,7000,54159,43567,575,52627,45409,265,14169,18703,65430,48813,49486,2,33677,0,0,0
142,7050,53767,44052,483,52215,45883,204,14595,18239,65467,48363,49927,12,37318,0,0,0
143,7100,53369,44534,399,51798,46353,151,15025,17780,65496,47908,50363,30,30036,0,0,0
144,7150,52966,45013,323,51377,46819,105,15460,17324,65517,47450,50795,56,26396,0,0,0
145,7200,52558,45488,255,50951,47283,68,15899,16872,65530,46988,51223,91,19114,0,0,0
146,7250,52146,45961,195,50521,47742,39,16343,16424,65535,46523,51646,133,17294,0,0,0
147,7300,51728,46431,143,50086,48198,18,16790,15980,65531,46054,52064,184,28216,0,0,0
148,7350,51306,46897,99,49647,48650,5,17241,15540,65520,45582,52478,242,35498,0,0,0
149,7400,50879,47359,63,49204,49099,0,17696,15104,65500,45107,52886,309,22755,0,0,0
150,7450,50448,47819,35,48756,49543,3,18155,14673,65473,44628,53290,383,24575,0,0,0
151,7500,50013,48274,15,48305,49983,14,18618,14246,65437,44147,53689,466,35498,0,0,0
152,7550,49573,48725,3,47850,50419,33,19083,13823,65393,43663,54083,556,35498,0,0,0
153,7600,49129,49173,0,47391,50850,60,19553,13406,65342,43176,54471,655,30036,0,0,0
154,7650,48681,49616,4,46929,51277,96,20025,12993,65282,42687,54854,761,28216,0,0,0
155,7700,48229,50056,16,46463,51699,139,20501,12585,65214,42196,55231,876,28216,0,0,0
156,7750,47774,50491,37,45994,52117,191,20980,12182,65138,41701,55603,998,26396,0,0,0
157,7800,47314,50922,66,45521,52530,250,21461,11784,65055,41205,55969,1128,39139,0,0,0
158,7850,46851,51348,102,45045,52938,318,21946,11391,64963,40707,56330,1266,31857,0,0,0
159,7900,46385,51770,147,44567,53341,393,22433,11004,64863,40206,56685,1411,29126,0,0,0
160,7950,45915,52186,200,44085,53739,477,22922,10622,64755,39704,57034,1565,33677,0,0,0
161,8000,45442,52599,261,43601,54132,569,23415,10245,64640,39200,57377,1726,35498,0,0,0
162,8050,44966,53006,330,43113,54520,668,23909,9874,64516,38695,57713,1894,34587,0,0,0
163,8100,44486,53408,407,42624,54902,775,24406,9509,64385,38188,58044,2071,29126,0,0,0
164,8150,44004,53805,492,42132,55279,891,24904,9149,64246,37679,58368,2255,27306,0,0,0
165,8200,43519,54197,585,41637,55650,1014,25405,8795,64099,37170,58686,2446,24575,0,0,0
166,8250,43032,54584,685,41141,56016,1145,25908,8447,63945,36659,58998,2645,33677,0,0,0
167,8300,42542,54966,794,40642,56376,1284,26412,8105,63783,36148,59303,2851,33677,0,0,0
168,8350,42049,55341,911,40141,56730,1430,26917,7769,63613,35635,59602,3065,25485,0,0,0
169,8400,41555,55712,1035,39639,57078,1585,27425,7440,63435,35122,59894,3286,25485,0,0,0
170,8450,41058,56076,1168,39135,57420,1747,27933,7116,63250,34609,60180,3514,32312,0,0,0
171,8500,40559,56435,1308,38629,57756,1916,28443,6799,63058,34094,60458,3750,33222,0,0,0
172,8550,40058,56788,1455,38122,58086,2093,28954,6488,62858,33580,60730,3992,33677,0,0,0
173,8600,39555,57135,1611,37614,58409,2278,29465,6184,62650,33065,60995,4242,33222,0,0,0
174,8650,39051,57476,1774,37104,58727,2471,29978,5886,62435,32551,61253,4499,19569,0,0,0
175,8700,38545,57811,1945,36593,59037,2670,30491,5595,62213,32036,61504,4763,24803,0,0,0
176,8750,38038,58140,2124,36082,59342,2878,31005,5311,61984,31521,61747,5034,34815,0,0,0
177,8800,37529,58463,2310,35569,59640,3092,31519,5033,61747,31007,61984,5311,33450,0,0,0
178,8850,37019,58779,2503,35056,59931,3314,32033,4763,61503,30493,62213,5595,26737,0,0,0
179,8900,36508,59089,2705,34542,60215,3544,32548,4499,61253,29980,62436,5886,22385,0,0,0
180,8950,35996,59392,2913,34028,60493,3780,33063,4242,60995,29468,62650,6184,33677,0,0,0
181,9000,35484,59689,3129,33514,60764,4024,33577,3992,60730,28956,62858,6488,34929,0,0,0
182,9050,34971,59979,3352,32999,61028,4274,34092,3750,60458,28445,63058,6799,31629,0,0,0
183,9100,34457,60262,3582,32484,61285,4532,34606,3514,60179,27936,63250,7116,32767,0,0,0
184,9150,33943,60539,3820,31970,61535,4797,35120,3286,59894,27427,63435,7440,20024,0,0,0
185,9200,33428,60809,4065,31455,61778,5068,35633,3065,59602,26920,63613,7769,21389,0,0,0
186,9250,32913,61072,4317,30941,62014,5347,36145,2851,59303,26414,63783,8105,34132,0,0,0
187,9300,32399,61327,4575,30427,62242,5632,36657,2645,58998,25910,63945,8447,37318,0,0,0
188,9350,31884,61576,4841,29914,62463,5924,37167,2446,58686,25408,64100,8795,25485,0,0,0
189,9400,31370,61818,5114,29402,62677,6222,37677,2254,58368,24907,64246,9149,31402,0,0,0
190,9450,30856,62052,5394,28890,62884,6527,38185,2071,58044,24408,64385,9508,38228,0,0,0
191,9500,30342,62280,5680,28380,63083,6839,38692,1894,57713,23911,64517,9874,30036,0,0,0
192,9550,29829,62500,5973,27870,63274,7156,39198,1726,57376,23417,64640,10245,42779,0,0,0
193,9600,29317,62712,6272,27362,63458,7481,39702,1565,57034,22925,64755,10622,38228,0,0,0
194,9650,28805,62918,6578,26855,63635,7811,40204,1411,56685,22435,64863,11004,23665,0,0,0
195,9700,28295,63116,6891,26349,63804,8148,40704,1266,56330,21948,64963,11391,20934,0,0,0
196,9750,27786,63306,7210,25845,63965,8490,41203,1128,55970,21463,65055,11784,23665,0,0,0
197,9800,27278,63489,7535,25343,64119,8839,41699,998,55603,20982,65138,12182,33677,0,0,0
198,9850,26771,63664,7867,24843,64264,9194,42193,876,55231,20503,65214,12585,24575,0,0,0
199,9900,26266,63832,8204,24344,64403,9554,42685,761,54854,20027,65282,12992,40959,0,0,0
200,9950,25762,63992,8548,23848,64533,9920,43174,655,54471,19554,65342,13405,28216,0,0,0
201,10000,25260,64144,8898,23354,64655,10292,43661,556,54083,19085,65393,13823,33677,0,0,0
202,10050,24760,64288,9253,22862,64770,10669,44145,466,53689,18619,65437,14245,30036,0,0,0
203,10100,24262,64425,9615,22373,64876,11052,44626,383,53291,18156,65473,14672,28216,0,0,0
204,10150,23766,64554,9982,21886,64975,11440,45105,309,52887,17698,65500,15103,11832,0,0,0
205,10200,23272,64675,10355,21402,65066,11834,45580,242,52478,17242,65520,15539,19114,0,0,0
206,10250,22781,64788,10733,20920,65149,12232,46052,184,52065,16791,65531,15979,30036,0,0,0
207,10300,22292,64894,11116,20442,65223,12636,46521,133,51646,16344,65535,16423,30036,0,0,0
208,10350,21805,64991,11505,19966,65290,13044,46987,91,51223,15900,65530,16871,28216,0,0,0
209,10400,21321,65080,11900,19494,65349,13458,47449,56,50796,15461,65517,17323,39139,0,0,0
210,10450,20841,65162,12299,19025,65400,13876,47907,30,50364,15026,65496,17779,35498,0,0,0
211,10500,20363,65235,12704,18560,65442,14299,48362,12,49928,14596,65467,18238,19114,0,0,0
212,10550,19888,65301,13113,18098,65477,14726,48812,2,49487,14169,65430,18701,28216,0,0,0
213,10600,19416,65358,13527,17639,65503,15158,49259,0,49042,13748,65385,19168,19114,0,0,0
214,10650,18948,65408,13946,17184,65522,15595,49702,6,48594,13331,65332,19637,13653,0,0,0
