Горшечное-Бекетово, 1
148,20A,128D
1,UA,A,,V,0.00752294,0,0,-32767,32767
2,UB,B,,V,0.0075386,0,5.55556,-32767,32767
3,UC,C,,V,0.00754174,0,5.55556,-32767,32767
4,UNI,D,,V,0.0209217,0,-5.55556,-32767,32767
5,IA,A,,mA,13.5893,0,-44.4444,-32767,32767
6,IB,B,,mA,13.5829,0,-44.4444,-32767,32767
7,IC,C,,mA,13.5766,0,-38.8889,-32767,32767
8,IO,D,,A,0.0135766,0,-44.4444,-32767,32767
9,IS,E,,A,0.0140403,0,-183.333,-32767,32767
10,UIK,F,,V,0.0209096,0,5.55556,-32767,32767
11,U1,G,,mV,58.601,0,0,-32767,32767
12,U2,H,,mV,57.7599,0,0,-32767,32767
13,US,I,,mV,20.958,0,5.55556,-32767,32767
14,I1,F,,mA,0.63224,0,0,-32767,32767
15,I2,G,,mA,0.64027,0,0,-32767,32767
16,I3,H,,mA,0.63018,0,0,-32767,32767
17,R,I,,kA,0.001,0,0,-32767,32767
18,R,J,,kA,0.001,0,0,-32767,32767
19,R,K,,kA,0.001,0,0,-32767,32767
20,R,L,,kA,0.001,0,0,-32767,32767
1,DI_Неиспр.ТН (1),0
2,DI_Неиспр.ВЧ (9),0
3,DI_Ускор.от пар.линии (7),0
4,DI_Неиспр.ОН (27),0
5,DI_Внеш.ЗНФР (170),0
6,DI_РПВ ШСВ (39),0
7,DI_Резерв,0
8,DI_Резерв,0
9,DI_Резерв,0
10,DI_Резерв,0
11,DI_Прием ВЧТО ДЗ (14),0
12,DI_Прием ВЧТО УРОВ (17),0
13,DI_Прием ВЧТО ТНЗНП (10),0
14,DI_РПО (4),0
15,DI_РПВ1 (2),0
16,DI_Контроль питания (48),0
17,DI_Вывод ТО (5),0
18,DI_Вывод ТНЗНП (11),0
19,DI_Вывод ДЗ (12),0
20,DI_Ввод ОУ ДЗ (13),0
21,DI_Ввод ОУ ТНЗНП (8),0
22,DI_Вывод УРОВ (24),0
23,DI_Вывод МТЗ (6),0
24,DI_Группа уставок +1 (42),0
25,DI_Группа уставок +2 (43),0
26,DI_Группа уставок +4 (45),0
27,DI_Дист.управление (47),0
28,DI_Тест терминала (171),0
29,DI_Вывод терминала (40),0
30,DI_Съём сигнализации (41),0
31,DI_Резерв,0
32,DI_Ключ 3,0
33,DI_Резерв,0
34,DI_Резерв,0
35,DI_Резерв,0
36,DI_Резерв,0
37,DI_Резерв,0
38,DI_Резерв,0
39,DI_Резерв,0
40,DI_Резерв,0
41,Напр.пуск 1ст ДЗ (78),0
42,Напр.пуск 2ст ДЗ (79),0
43,Напр.пуск 3ст ДЗ (80),0
44,Напр.пуск 4ст ДЗ (81),0
45,Напр.пуск 5ст ДЗ (82),0
46,Откл.1ст ДЗ (73),0
47,Откл.2ст ДЗ (74),0
48,Откл.3ст ДЗ (75),0
49,Откл.4ст ДЗ (76),0
50,Откл.5ст ДЗ (77),0
51,Пуск ТНЗНП (58),0
52,Откл.1ст ТНЗНП (54),0
53,Откл.2ст ТНЗНП (55),0
54,Откл.3ст ТНЗНП (56),0
55,Откл.4ст ТНЗНП (57),0
56,Откл.5ст ТНЗНП (108),0
57,Откл.при АУ ДЗ (266),0
58,Откл.при ОУ ДЗ (267),0
59,Откл.при АУ ТНЗНП (264),0
60,Откл.при ОУ ТНЗНП (265),0
61,Откл.ВЧТО ДЗ (85),0
62,Запрет АПВ (102),0
63,УРОВ на смеж выкл. (95),0
64,БК I чувств,0
65,БК I грубый,0
66,БНН (50),0
67,Посыл ВЧТО ТНЗНП (61),0
68,Посыл ВЧТО ДЗ (84),0
69,Откл.от ВЧТО ТНЗНП (60),0
70,Срабатывание МТЗ (53),0
71,Пуск УРОВ (134),0
72,Срабатывание ТО (52),0
73,Неиспр.терминала (70),0
74,Откл ЭМО1_ ЭМО2 (97),0
75,Запрет АПВ от защит (89),0
76,Останов ВЧ (111),0
77,Пуск УРОВ (134),0
78,РТ УРОВ (135),0
79,Срабатываниезащит (88),0
80,Контрольный выход (71),0
81,УРОВ на смеж выкл. (95),0
82,УРОВ на смеж выкл. (95),0
83,Откл ЭМО1_ ЭМО2 (97),0
84,Откл ЭМО1_ ЭМО2 (97),0
85,Откл ЭМО1_ ЭМО2 (97),0
86,Откл ЭМО1_ ЭМО2 (97),0
87,Срабатываниезащит (88),0
88,Уск.пар.линии (113),0
89,УРОВ на смеж выкл. (95),0
90,Посыл ВЧТО ДЗ (84),0
91,Посыл ВЧТО ТНЗНП (61),0
92,Резерв,0
93,Откл ЭМО1_ ЭМО2 (97),0
94,Откл ЭМО1_ ЭМО2 (97),0
95,Откл ЭМО1_ ЭМО2 (97),0
96,Откл ЭМО1_ ЭМО2 (97),0
97,Откл ЭМО1_ ЭМО2 (97),0
98,Откл ЭМО1_ ЭМО2 (97),0
99,Отключение на сигнал (119),0
100,Терминал выведен (72),0
101,DI_Ключ 3,0
102,DI_Ввод ОУ ДЗ (13),0
103,DI_Ввод ОУ ТНЗНП (8),0
104,Неисправность (68),0
105,Резерв,0
106,Резерв,0
107,Резерв,0
108,Резерв,0
109,Резерв,0
110,Резерв,0
111,Резерв,0
112,Резерв,0
113,Резерв,0
114,Откл ЭМО1_ ЭМО2 (97),0
115,Резерв,0
116,Откл ЭМО1_ ЭМО2 (97),0
117,Резерв,0
118,Резерв,0
119,Резерв,0
120,Резерв,0
121,Резерв,0
122,ИО Прямонапр. ZAB,0
123,ИО Прямонапр. ZBC,0
124,ИО Обратнонапр. ZAB,0
125,ИО Обратнонапр. ZBC,0
126,Прямое РНМНП,0
127,Обратное РНМНП (62),0
128,ИО Прямонапр. ZCA,0
50.000000
1
1000.000000,1000
01/08/14,12:30:04.918000
01/08/14,12:30:05.018000
ASCII
1,0,8981,1634,-10539,5576,-20,41,-26,-1,-2,-5592,-43,-38,-1,-48,-64,46,20000,-15532,-30000,0,0,0,0,0,0,0,0,0,0,0,0,0,0,0,0,1,0,0,0,0,0,1,1,0,0,0,0,0,0,0,0,0,0,0,0,0,0,0,0,0,0,0,0,0,0,0,0,0,0,0,0,0,0,0,0,0,0,0,0,0,0,0,0,0,0,0,0,0,0,0,0,0,0,0,0,0,0,1,0,0,0,0,0,0,0,0,0,0,0,0,0,0,0,0,0,0,0,0,0,0,0,0,0,0,0,0,0,0,0,0,0,0,0,0,0,0,0,0,0,0,0,0,0,1,1,0,0,0
2,1000,6183,5101,-11255,3861,-34,45,-16,-1,-1,-3898,-45,-36,-1,-46,-63,47,20000,-15532,-30000,0,0,0,0,0,0,0,0,0,0,0,0,0,0,0,0,1,0,0,0,0,0,1,1,0,0,0,0,0,0,0,0,0,0,0,0,0,0,0,0,0,0,0,0,0,0,0,0,0,0,0,0,0,0,0,0,0,0,0,0,0,0,0,0,0,0,0,0,0,0,0,0,0,0,0,0,0,0,1,0,0,0,0,0,0,0,0,0,0,0,0,0,0,0,0,0,0,0,0,0,0,0,0,0,0,0,0,0,0,0,0,0,0,0,0,0,0,0,0,0,0,0,0,0,1,1,0,0,0
3,2000,3065,7974,-11041,1786,-42,41,-5,-1,-1,-1826,-45,-37,-3,-49,-64,46,20000,-15532,-30000,0,0,0,0,0,0,0,0,0,0,0,0,0,0,0,0,1,0,0,0,0,0,1,1,0,0,0,0,0,0,0,0,0,0,0,0,0,0,0,0,0,0,0,0,0,0,0,0,0,0,0,0,0,0,0,0,0,0,0,0,0,0,0,0,0,0,0,0,0,0,0,0,0,0,0,0,0,0,1,0,0,0,0,0,0,0,0,0,0,0,0,0,0,0,0,0,0,0,0,0,0,0,0,0,0,0,0,0,0,0,0,0,0,0,0,0,0,0,0,0,0,0,0,0,1,1,0,0,0
4,3000,-536,10186,-9624,-545,-49,32,12,-1,-1,523,-41,-40,-1,-48,-63,46,20000,-15532,-30000,0,0,0,0,0,0,0,0,0,0,0,0,0,0,0,0,1,0,0,0,0,0,1,1,0,0,0,0,0,0,0,0,0,0,0,0,0,0,0,0,0,0,0,0,0,0,0,0,0,0,0,0,0,0,0,0,0,0,0,0,0,0,0,0,0,0,0,0,0,0,0,0,0,0,0,0,0,0,1,0,0,0,0,0,0,0,0,0,0,0,0,0,0,0,0,0,0,0,0,0,0,0,0,0,0,0,0,0,0,0,0,0,0,0,0,0,0,0,0,0,0,0,0,0,1,1,0,0,0
5,4000,-4087,11247,-7087,-2764,-52,21,26,-1,-1,2760,-44,-38,-1,-48,-64,47,20000,-15532,-30000,0,0,0,0,0,0,0,0,0,0,0,0,0,0,0,0,1,0,0,0,0,0,1,1,0,0,0,0,0,0,0,0,0,0,0,0,0,0,0,0,0,0,0,0,0,0,0,0,0,0,0,0,0,0,0,0,0,0,0,0,0,0,0,0,0,0,0,0,0,0,0,0,0,0,0,0,0,0,1,0,0,0,0,0,0,0,0,0,0,0,0,0,0,0,0,0,0,0,0,0,0,0,0,0,0,0,0,0,0,0,0,0,0,0,0,0,0,0,0,0,0,0,0,0,1,1,0,0,0
6,5000,-7265,11297,-4059,-4678,-49,7,37,-1,-1,4677,-39,-39,2,-46,-63,47,20000,-15532,-30000,0,0,0,0,0,0,0,0,0,0,0,0,0,0,0,0,1,0,0,0,0,0,1,1,0,0,0,0,0,0,0,0,0,0,0,0,0,0,0,0,0,0,0,0,0,0,0,0,0,0,0,0,0,0,0,0,0,0,0,0,0,0,0,0,0,0,0,0,0,0,0,0,0,0,0,0,0,0,1,0,0,0,0,0,0,0,0,0,0,0,0,0,0,0,0,0,0,0,0,0,0,0,0,0,0,0,0,0,0,0,0,0,0,0,0,0,0,0,0,0,0,0,0,0,1,1,0,0,0
7,6000,-9533,10184,-672,-6154,-38,-11,45,-1,-1,6151,-43,-38,0,-47,-63,46,20000,-15532,-30000,0,0,0,0,0,0,0,0,0,0,0,0,0,0,0,0,1,0,0,0,0,0,1,1,0,0,0,0,0,0,0,0,0,0,0,0,0,0,0,0,0,0,0,0,0,0,0,0,0,0,0,0,0,0,0,0,0,0,0,0,0,0,0,0,0,0,0,0,0,0,0,0,0,0,0,0,0,0,1,0,0,0,0,0,0,0,0,0,0,0,0,0,0,0,0,0,0,0,0,0,0,0,0,0,0,0,0,0,0,0,0,0,0,0,0,0,0,0,0,0,0,0,0,0,1,1,0,0,0
8,7000,-10953,8156,2775,-7029,-26,-27,50,-1,-1,7016,-44,-38,1,-46,-63,47,20000,-15532,-30000,0,0,0,0,0,0,0,0,0,0,0,0,0,0,0,0,1,0,0,0,0,0,1,1,0,0,0,0,0,0,0,0,0,0,0,0,0,0,0,0,0,0,0,0,0,0,0,0,0,0,0,0,0,0,0,0,0,0,0,0,0,0,0,0,0,0,0,0,0,0,0,0,0,0,0,0,0,0,1,0,0,0,0,0,0,0,0,0,0,0,0,0,0,0,0,0,0,0,0,0,0,0,0,0,0,0,0,0,0,0,0,0,0,0,0,0,0,0,0,0,0,0,0,0,1,1,0,0,0
9,8000,-11373,5221,6143,-7287,-14,-35,46,-1,-1,7278,-46,-39,-2,-46,-63,47,20000,-15532,-30000,0,0,0,0,0,0,0,0,0,0,0,0,0,0,0,0,1,0,0,0,0,0,1,1,0,0,0,0,0,0,0,0,0,0,0,0,0,0,0,0,0,0,0,0,0,0,0,0,0,0,0,0,0,0,0,0,0,0,0,0,0,0,0,0,0,0,0,0,0,0,0,0,0,0,0,0,0,0,1,0,0,0,0,0,0,0,0,0,0,0,0,0,0,0,0,0,0,0,0,0,0,0,0,0,0,0,0,0,0,0,0,0,0,0,0,0,0,0,0,0,0,0,0,0,1,1,0,0,0
10,9000,-10712,1938,8682,-6707,1,-40,36,-1,-2,6715,-44,-40,1,-47,-63,47,20000,-15532,-30000,0,0,0,0,0,0,0,0,0,0,0,0,0,0,0,0,1,0,0,0,0,0,1,1,0,0,0,0,0,0,0,0,0,0,0,0,0,0,0,0,0,0,0,0,0,0,0,0,0,0,0,0,0,0,0,0,0,0,0,0,0,0,0,0,0,0,0,0,0,0,0,0,0,0,0,0,0,0,1,0,0,0,0,0,0,0,0,0,0,0,0,0,0,0,0,0,0,0,0,0,0,0,0,0,0,0,0,0,0,0,0,0,0,0,0,0,0,0,0,0,0,0,0,0,1,1,0,0,0
11,10000,-8929,-1643,10515,-5544,20,-45,22,-1,-1,5575,-42,-40,1,-50,-64,47,20000,-15532,-30000,0,0,0,0,0,0,0,0,0,0,0,0,0,0,0,0,1,0,0,0,0,0,1,1,0,0,0,0,0,0,0,0,0,0,0,0,0,0,0,0,0,0,0,0,0,0,0,0,0,0,0,0,0,0,0,0,0,0,0,0,0,0,0,0,0,0,0,0,0,0,0,0,0,0,0,0,0,0,1,0,0,0,0,0,0,0,0,0,0,0,0,0,0,0,0,0,0,0,0,0,0,0,0,0,0,0,0,0,0,0,0,0,0,0,0,0,0,0,0,0,0,0,0,0,1,1,0,0,0
12,11000,-6226,-5073,11273,-3851,35,-48,11,-1,-1,3905,-44,-40,2,-48,-63,47,20000,-15532,-30000,0,0,0,0,0,0,0,0,0,0,0,0,0,0,0,0,1,0,0,0,0,0,1,1,0,0,0,0,0,0,0,0,0,0,0,0,0,0,0,0,0,0,0,0,0,0,0,0,0,0,0,0,0,0,0,0,0,0,0,0,0,0,0,0,0,0,0,0,0,0,0,0,0,0,0,0,0,0,1,0,0,0,0,0,0,0,0,0,0,0,0,0,0,0,0,0,0,0,0,0,0,0,0,0,0,0,0,0,0,0,0,0,0,0,0,0,0,0,0,0,0,0,0,0,1,1,0,0,0
13,12000,-3043,-7980,11033,-1767,41,-43,-2,-1,-1,1822,-47,-44,-2,-49,-65,46,20000,-15532,-30000,0,0,0,0,0,0,0,0,0,0,0,0,0,0,0,0,1,0,0,0,0,0,1,1,0,0,0,0,0,0,0,0,0,0,0,0,0,0,0,0,0,0,0,0,0,0,0,0,0,0,0,0,0,0,0,0,0,0,0,0,0,0,0,0,0,0,0,0,0,0,0,0,0,0,0,0,0,0,1,0,0,0,0,0,0,0,0,0,0,0,0,0,0,0,0,0,0,0,0,0,0,0,0,0,0,0,0,0,0,0,0,0,0,0,0,0,0,0,0,0,0,0,0,0,1,1,0,0,0
14,13000,529,-10178,9631,534,47,-32,-18,-1,-1,-503,-44,-39,-1,-47,-65,46,20000,-15532,-30000,0,0,0,0,0,0,0,0,0,0,0,0,0,0,0,0,1,0,0,0,0,0,1,1,0,0,0,0,0,0,0,0,0,0,0,0,0,0,0,0,0,0,0,0,0,0,0,0,0,0,0,0,0,0,0,0,0,0,0,0,0,0,0,0,0,0,0,0,0,0,0,0,0,0,0,0,0,0,1,0,0,0,0,0,0,0,0,0,0,0,0,0,0,0,0,0,0,0,0,0,0,0,0,0,0,0,0,0,0,0,0,0,0,0,0,0,0,0,0,0,0,0,0,0,1,1,0,0,0
15,14000,4131,-11213,7004,2764,48,-21,-30,-1,-1,-2749,-45,-38,-2,-49,-65,46,20006,-15532,-30000,0,0,0,0,0,0,0,0,0,0,0,0,0,0,0,0,1,0,0,0,0,0,1,1,0,0,0,0,0,0,0,0,0,0,0,0,0,0,0,0,0,0,0,0,0,0,0,0,0,0,0,0,0,0,0,0,0,0,0,0,0,0,0,0,0,0,0,0,0,0,0,0,0,0,0,0,0,0,1,0,0,0,0,0,0,0,0,0,0,0,0,0,0,0,0,0,0,0,0,0,0,0,0,0,0,0,0,0,0,0,0,0,0,0,0,0,0,0,0,0,0,0,0,0,1,1,0,0,0
16,15000,7266,-11342,4131,4661,44,-9,-39,-1,-1,-4652,-51,-38,-3,-48,-64,47,20006,-15532,-30000,0,0,0,0,0,0,0,0,0,0,0,0,0,0,0,0,1,0,0,0,0,0,1,1,0,0,0,0,0,0,0,0,0,0,0,0,0,0,0,0,0,0,0,0,0,0,0,0,0,0,0,0,0,0,0,0,0,0,0,0,0,0,0,0,0,0,0,0,0,0,0,0,0,0,0,0,0,0,1,0,0,0,0,0,0,0,0,0,0,0,0,0,0,0,0,0,0,0,0,0,0,0,0,0,0,0,0,0,0,0,0,0,0,0,0,0,0,0,0,0,0,0,0,0,1,1,0,0,0
17,16000,9543,-10229,725,6158,34,5,-44,-1,-1,-6150,-48,-43,-2,-50,-63,46,20006,-15532,-30000,0,0,0,0,0,0,0,0,0,0,0,0,0,0,0,0,1,0,0,0,0,0,1,1,0,0,0,0,0,0,0,0,0,0,0,0,0,0,0,0,0,0,0,0,0,0,0,0,0,0,0,0,0,0,0,0,0,0,0,0,0,0,0,0,0,0,0,0,0,0,0,0,0,0,0,0,0,0,1,0,0,0,0,0,0,0,0,0,0,0,0,0,0,0,0,0,0,0,0,0,0,0,0,0,0,0,0,0,0,0,0,0,0,0,0,0,0,0,0,0,0,0,0,0,1,1,0,0,0
18,17000,10914,-8133,-2763,7021,24,21,-49,-1,-2,-7004,-44,-40,-2,-48,-63,47,20006,-15532,-30000,0,0,0,0,0,0,0,0,0,0,0,0,0,0,0,0,1,0,0,0,0,0,1,1,0,0,0,0,0,0,0,0,0,0,0,0,0,0,0,0,0,0,0,0,0,0,0,0,0,0,0,0,0,0,0,0,0,0,0,0,0,0,0,0,0,0,0,0,0,0,0,0,0,0,0,0,0,0,1,0,0,0,0,0,0,0,0,0,0,0,0,0,0,0,0,0,0,0,0,0,0,0,0,0,0,0,0,0,0,0,0,0,0,0,0,0,0,0,0,0,0,0,0,0,1,1,0,0,0
19,18000,11361,-5224,-6122,7312,13,30,-48,-1,-1,-7289,-41,-37,-4,-47,-64,46,20006,-15532,-30000,0,0,0,0,0,0,0,0,0,0,0,0,0,0,0,0,1,0,0,0,0,0,1,1,0,0,0,0,0,0,0,0,0,0,0,0,0,0,0,0,0,0,0,0,0,0,0,0,0,0,0,0,0,0,0,0,0,0,0,0,0,0,0,0,0,0,0,0,0,0,0,0,0,0,0,0,0,0,1,0,0,0,0,0,0,0,0,0,0,0,0,0,0,0,0,0,0,0,0,0,0,0,0,0,0,0,0,0,0,0,0,0,0,0,0,0,0,0,0,0,0,0,0,0,1,1,0,0,0
20,19000,10755,-1975,-8672,6733,-1,35,-38,-1,-1,-6736,-43,-40,-1,-47,-63,47,20006,-15532,-30000,0,0,0,0,0,0,0,0,0,0,0,0,0,0,0,0,1,0,0,0,0,0,1,1,0,0,0,0,0,0,0,0,0,0,0,0,0,0,0,0,0,0,0,0,0,0,0,0,0,0,0,0,0,0,0,0,0,0,0,0,0,0,0,0,0,0,0,0,0,0,0,0,0,0,0,0,0,0,1,0,0,0,0,0,0,0,0,0,0,0,0,0,0,0,0,0,0,0,0,0,0,0,0,0,0,0,0,0,0,0,0,0,0,0,0,0,0,0,0,0,0,0,0,0,1,1,0,0,0
21,20000,8983,1638,-10538,5572,-20,42,-27,-1,-2,-5591,-43,-37,-5,-48,-64,46,20006,-15532,-30000,0,0,0,0,0,0,0,0,0,0,0,0,0,0,0,0,1,0,0,0,0,0,1,1,0,0,0,0,0,0,0,0,0,0,0,0,0,0,0,0,0,0,0,0,0,0,0,0,0,0,0,0,0,0,0,0,0,0,0,0,0,0,0,0,0,0,0,0,0,0,0,0,0,0,0,0,0,0,1,0,0,0,0,0,0,0,0,0,0,0,0,0,0,0,0,0,0,0,0,0,0,0,0,0,0,0,0,0,0,0,0,0,0,0,0,0,0,0,0,0,0,0,0,0,1,1,0,0,0
22,21000,6198,5095,-11258,3865,-34,46,-17,-1,-1,-3903,-46,-37,-9,-47,-63,47,20006,-15532,-30000,0,0,0,0,0,0,0,0,0,0,0,0,0,0,0,0,1,0,0,0,0,0,1,1,0,0,0,0,0,0,0,0,0,0,0,0,0,0,0,0,0,0,0,0,0,0,0,0,0,0,0,0,0,0,0,0,0,0,0,0,0,0,0,0,0,0,0,0,0,0,0,0,0,0,0,0,0,0,1,0,0,0,0,0,0,0,0,0,0,0,0,0,0,0,0,0,0,0,0,0,0,0,0,0,0,0,0,0,0,0,0,0,0,0,0,0,0,0,0,0,0,0,0,0,1,1,0,0,0
23,22000,3061,7976,-11040,1785,-41,43,-5,-1,-1,-1824,-46,-40,-6,-49,-64,46,20006,-15532,-30000,0,0,0,0,0,0,0,0,0,0,0,0,0,0,0,0,1,0,0,0,0,0,1,1,0,0,0,0,0,0,0,0,0,0,0,0,0,0,0,0,0,0,0,0,0,0,0,0,0,0,0,0,0,0,0,0,0,0,0,0,0,0,0,0,0,0,0,0,0,0,0,0,0,0,0,0,0,0,1,0,0,0,0,0,0,0,0,0,0,0,0,0,0,0,0,0,0,0,0,0,0,0,0,0,0,0,0,0,0,0,0,0,0,0,0,0,0,0,0,0,0,0,0,0,1,1,0,0,0
24,23000,-550,10197,-9628,-551,-49,33,12,-1,-1,529,-49,-38,-1,-48,-63,47,20006,-15532,-30000,0,0,0,0,0,0,0,0,0,0,0,0,0,0,0,0,1,0,0,0,0,0,1,1,0,0,0,0,0,0,0,0,0,0,0,0,0,0,0,0,0,0,0,0,0,0,0,0,0,0,0,0,0,0,0,0,0,0,0,0,0,0,0,0,0,0,0,0,0,0,0,0,0,0,0,0,0,0,1,0,0,0,0,0,0,0,0,0,0,0,0,0,0,0,0,0,0,0,0,0,0,0,0,0,0,0,0,0,0,0,0,0,0,0,0,0,0,0,0,0,0,0,0,0,1,1,0,0,0
25,24000,-4101,11275,-7106,-2775,-51,21,26,-1,-1,2765,-40,-38,0,-49,-64,46,20006,-15532,-30000,0,0,0,0,0,0,0,0,0,0,0,0,0,0,0,0,1,0,0,0,0,0,1,1,0,0,0,0,0,0,0,0,0,0,0,0,0,0,0,0,0,0,0,0,0,0,0,0,0,0,0,0,0,0,0,0,0,0,0,0,0,0,0,0,0,0,0,0,0,0,0,0,0,0,0,0,0,0,1,0,0,0,0,0,0,0,0,0,0,0,0,0,0,0,0,0,0,0,0,0,0,0,0,0,0,0,0,0,0,0,0,0,0,0,0,0,0,0,0,0,0,0,0,0,1,1,0,0,0
26,25000,-7280,11327,-4070,-4675,-46,7,35,-1,-1,4675,-43,-40,1,-47,-63,46,20006,-15532,-30000,0,0,0,0,0,0,0,0,0,0,0,0,0,0,0,0,1,0,0,0,0,0,1,1,0,0,0,0,0,0,0,0,0,0,0,0,0,0,0,0,0,0,0,0,0,0,0,0,0,0,0,0,0,0,0,0,0,0,0,0,0,0,0,0,0,0,0,0,0,0,0,0,0,0,0,0,0,0,1,0,0,0,0,0,0,0,0,0,0,0,0,0,0,0,0,0,0,0,0,0,0,0,0,0,0,0,0,0,0,0,0,0,0,0,0,0,0,0,0,0,0,0,0,0,1,1,0,0,0
27,26000,-9431,9949,-554,-6080,-27,-26,50,-1,-1,6070,-42,-37,4,-48,-64,46,20004,-15532,-30000,0,0,0,0,0,0,0,0,0,0,0,0,0,0,0,0,1,0,0,0,0,0,1,1,0,0,0,0,0,0,0,0,0,0,0,0,0,0,0,0,0,0,0,0,0,0,0,0,0,0,0,0,0,0,0,0,0,0,0,0,0,0,0,0,0,0,0,0,0,0,0,0,0,0,0,0,0,0,1,0,0,0,0,0,0,0,0,0,0,0,0,0,0,0,0,0,0,0,0,0,0,0,0,0,0,0,0,0,0,0,0,0,0,0,0,0,0,0,0,0,0,0,0,0,1,1,0,0,0
28,27000,-10886,8032,2822,-6983,-9,-56,62,-1,-1,6972,-42,-38,1,-47,-63,47,20004,-15532,-30000,0,0,0,0,0,0,0,0,0,0,0,0,0,0,0,0,1,0,0,0,0,0,1,1,0,0,0,0,0,0,0,0,0,0,0,0,0,0,0,0,0,0,0,0,0,0,0,0,0,0,0,0,0,0,0,0,0,0,0,0,0,0,0,0,0,0,0,0,0,0,0,0,0,0,0,0,0,0,1,0,0,0,0,0,0,0,0,0,0,0,0,0,0,0,0,0,0,0,0,0,0,0,0,0,0,0,0,0,0,0,0,0,0,0,0,0,0,0,0,0,0,0,0,0,1,1,0,0,0
29,28000,-11354,5196,6149,-7272,4,-67,60,-1,-1,7266,-44,-40,0,-47,-63,46,20004,-15532,-30000,0,0,0,0,0,0,0,0,0,0,0,0,0,0,0,0,1,0,0,0,0,0,1,1,0,0,0,0,0,0,0,0,0,0,0,0,0,0,0,0,0,0,0,0,0,0,0,0,0,0,0,0,0,0,0,0,0,0,0,0,0,0,0,0,0,0,0,0,0,0,0,0,0,0,0,0,0,0,1,0,0,0,0,0,0,0,0,0,0,0,0,0,0,0,0,0,0,0,0,0,0,0,0,0,0,0,0,0,0,0,0,0,0,0,0,0,0,0,0,0,0,0,0,0,1,1,0,0,0
30,29000,-10762,2035,8648,-6745,14,-61,45,-1,-1,6760,-48,-38,-1,-49,-63,46,20004,-15532,-30000,0,0,0,0,0,0,0,0,0,0,0,0,0,0,0,0,1,0,0,0,0,0,1,1,0,0,0,0,0,0,0,0,0,0,0,0,0,0,0,0,0,0,0,0,0,0,0,0,0,0,0,0,0,0,0,0,0,0,0,0,0,0,0,0,0,0,0,0,0,0,0,0,0,0,0,0,0,0,1,0,0,0,0,0,0,0,0,0,0,0,0,0,0,0,0,0,0,0,0,0,0,0,0,0,0,0,0,0,0,0,0,0,0,0,0,0,0,0,0,0,0,0,0,0,1,1,0,0,0
31,30000,-9014,-1497,10459,-5603,25,-52,24,-1,-2,5636,-46,-37,0,-49,-63,46,20004,-15532,-30000,0,0,0,0,0,0,0,0,0,0,0,0,0,0,0,0,1,0,0,0,0,0,1,1,0,0,0,0,0,0,0,0,0,0,0,0,0,0,0,0,0,0,0,0,0,0,0,0,0,0,0,0,0,0,0,0,0,0,0,0,0,0,0,0,0,0,0,0,0,0,0,0,0,0,0,0,0,0,1,0,0,0,0,0,0,0,0,0,0,0,0,0,0,0,0,0,0,0,0,0,0,0,0,0,0,0,0,0,0,0,0,0,0,0,0,0,0,0,0,0,0,0,0,0,1,1,0,0,0
32,31000,-6285,-4937,11210,-3909,31,-39,6,-1,-1,3959,-45,-43,4,-47,-63,47,20004,-15532,-30000,0,0,0,0,0,0,0,0,0,0,0,0,0,0,0,0,1,0,0,0,0,0,1,1,0,0,0,0,0,0,0,0,0,0,0,0,0,0,0,0,0,0,0,0,0,0,0,0,0,0,0,0,0,0,0,0,0,0,0,0,0,0,0,0,0,0,0,0,0,0,0,0,0,0,0,0,0,0,1,0,0,0,0,0,0,0,0,0,0,0,0,0,0,0,0,0,0,0,0,0,0,0,0,0,0,0,0,0,0,0,0,0,0,0,0,0,0,0,0,0,0,0,0,0,1,1,0,0,0
33,32000,-3149,-7790,10958,-1840,31,-20,-14,-1,-1,1897,-47,-36,4,-49,-64,46,20004,-15532,-30000,0,0,0,0,0,0,0,0,0,0,0,0,0,0,0,0,1,0,0,0,0,0,1,1,0,0,0,0,0,0,0,0,0,0,0,0,0,0,0,0,0,0,0,0,0,0,0,0,0,0,0,0,0,0,0,0,0,0,0,0,0,0,0,0,0,0,0,0,0,0,0,0,0,0,0,0,0,0,1,0,0,0,0,0,0,0,0,0,0,0,0,0,0,0,0,0,0,0,0,0,0,0,0,0,0,0,0,0,0,0,0,0,0,0,0,0,0,0,0,0,0,0,0,0,1,1,0,0,0
34,33000,402,-9958,9553,455,27,7,-38,-1,-1,-416,-46,-39,2,-47,-63,47,20004,-15532,-30000,0,0,0,0,0,0,0,0,0,0,0,0,0,0,0,0,1,0,0,0,0,0,1,1,0,0,0,0,0,0,0,0,0,0,0,0,0,0,0,0,0,0,0,0,0,0,0,0,0,0,0,0,0,0,0,0,0,0,0,0,0,0,0,0,0,0,0,0,0,0,0,0,0,0,0,0,0,0,1,0,0,0,0,0,0,0,0,0,0,0,0,0,0,0,0,0,0,0,0,0,0,0,0,0,0,0,0,0,0,0,0,0,0,0,0,0,0,0,0,0,0,0,0,0,1,1,0,0,0
35,34000,3947,-11035,7032,2674,21,33,-58,-1,-2,-2655,-46,-41,-2,-50,-64,47,20004,-15532,-30000,0,0,0,0,0,0,0,0,0,0,0,0,0,0,0,0,1,0,0,0,0,0,1,1,0,0,0,0,0,0,0,0,0,0,0,0,0,0,0,0,0,0,0,0,0,0,0,0,0,0,0,0,0,0,0,0,0,0,0,0,0,0,0,0,0,0,0,0,0,0,0,0,0,0,0,0,0,0,1,0,0,0,0,0,0,0,0,0,0,0,0,0,0,0,0,0,0,0,0,0,0,0,0,0,0,0,0,0,0,0,0,0,0,0,0,0,0,0,0,0,0,0,0,0,1,1,0,0,0
36,35000,7174,-11131,3982,4608,11,56,-71,-1,-1,-4605,-47,-41,-4,-47,-61,47,20004,-15532,-30000,0,0,0,0,0,0,0,0,0,0,0,0,0,0,0,0,1,0,0,0,0,0,1,1,0,0,0,0,0,0,0,0,0,0,0,0,0,0,0,0,0,0,0,0,0,0,0,0,0,0,0,0,0,0,0,0,0,0,0,0,0,0,0,0,0,0,0,0,0,0,0,0,0,0,0,0,0,0,1,0,0,0,0,0,0,0,0,0,0,0,0,0,0,0,0,0,0,0,0,0,0,0,0,0,0,0,0,0,0,0,0,0,0,0,0,0,0,0,0,0,0,0,0,0,1,1,0,0,0
37,36000,9489,-10134,686,6122,-1,75,-79,-1,-1,-6110,-43,-38,-4,-47,-62,46,20000,-15534,-30000,0,0,0,0,0,0,0,0,0,0,0,0,0,0,0,0,1,0,0,0,0,0,1,1,0,0,0,0,0,0,0,0,0,0,0,0,0,0,0,0,0,0,0,0,0,0,0,0,0,0,0,0,0,0,0,0,0,0,0,0,0,0,0,0,0,0,0,0,0,0,0,0,0,0,0,0,0,0,1,0,0,0,0,0,0,0,0,0,0,0,0,0,0,0,0,0,0,0,0,0,0,0,0,0,0,0,0,0,0,0,0,0,0,0,0,0,0,0,0,0,0,0,0,0,1,1,0,0,0
38,37000,10903,-8121,-2764,7015,-10,86,-81,-1,-2,-6997,-45,-37,-1,-47,-63,47,20000,-15534,-30000,0,0,0,0,0,0,0,0,0,0,0,0,0,0,0,0,1,0,0,0,0,0,1,1,0,0,0,0,0,0,0,0,0,0,0,0,0,0,0,0,0,0,0,0,0,0,0,0,0,0,0,0,0,0,0,0,0,0,0,0,0,0,0,0,0,0,0,0,0,0,0,0,0,0,0,0,0,0,1,0,0,0,0,0,0,0,0,0,0,0,0,0,0,0,0,0,0,0,0,0,0,0,0,0,0,0,0,0,0,0,0,0,0,0,0,0,0,0,0,0,0,0,0,0,1,1,0,0,0
39,38000,11397,-5286,-6108,7338,-16,85,-74,-1,-1,-7321,-47,-36,-2,-46,-63,47,20000,-15534,-30000,0,0,0,0,0,0,0,0,0,0,0,0,0,0,0,0,1,0,0,0,0,0,1,1,0,0,0,0,0,0,0,0,0,0,0,0,0,0,0,0,0,0,0,0,0,0,0,0,0,0,0,0,0,0,0,0,0,0,0,0,0,0,0,0,0,0,0,0,0,0,0,0,0,0,0,0,0,0,1,0,0,0,0,0,0,0,0,0,0,0,0,0,0,0,0,0,0,0,0,0,0,0,0,0,0,0,0,0,0,0,0,0,0,0,0,0,0,0,0,0,0,0,0,0,1,1,0,0,0
40,39000,10860,-2141,-8621,6803,-21,71,-55,-1,-2,-6812,-47,-39,-4,-48,-63,47,20000,-15534,-30000,0,0,0,0,0,0,0,0,0,0,0,0,0,0,0,0,1,0,0,0,0,0,1,1,0,0,0,0,0,0,0,0,0,0,0,0,0,0,0,0,0,0,0,0,0,0,0,0,0,0,0,0,0,0,0,0,0,0,0,0,0,0,0,0,0,0,0,0,0,0,0,0,0,0,0,0,0,0,1,0,0,0,0,0,0,0,0,0,0,0,0,0,0,0,0,0,0,0,0,0,0,0,0,0,0,0,0,0,0,0,0,0,0,0,0,0,0,0,0,0,0,0,0,0,1,1,0,0,0
41,40000,9113,1405,-10448,5654,-29,57,-34,-1,-1,-5681,-45,-37,-1,-50,-64,46,20000,-15534,-30000,0,0,0,0,0,0,0,0,0,0,0,0,0,0,0,0,1,0,0,0,0,0,1,1,0,0,0,0,0,0,0,0,0,0,0,0,0,0,0,0,0,0,0,0,0,0,0,0,0,0,0,0,0,0,0,0,0,0,0,0,0,0,0,0,0,0,0,0,0,0,0,0,0,0,0,0,0,0,1,0,0,0,0,0,0,0,0,0,0,0,0,0,0,0,0,0,0,0,0,0,0,0,0,0,0,0,0,0,0,0,0,0,0,0,0,0,0,0,0,0,0,0,0,0,1,1,0,0,0
42,41000,6310,4889,-11167,3933,-33,41,-14,-1,-1,-3972,-43,-36,0,-48,-63,47,20000,-15534,-30000,0,0,0,0,0,0,0,0,0,0,0,0,0,0,0,0,1,0,0,0,0,0,1,1,0,0,0,0,0,0,0,0,0,0,0,0,0,0,0,0,0,0,0,0,0,0,0,0,0,0,0,0,0,0,0,0,0,0,0,0,0,0,0,0,0,0,0,0,0,0,0,0,0,0,0,0,0,0,1,0,0,0,0,0,0,0,0,0,0,0,0,0,0,0,0,0,0,0,0,0,0,0,0,0,0,0,0,0,0,0,0,0,0,0,0,0,0,0,0,0,0,0,0,0,1,1,0,0,0
43,42000,3189,7758,-10955,1868,-31,18,7,-1,-1,-1910,-45,-38,-1,-49,-64,46,20000,-15534,-30000,0,0,0,0,0,0,0,0,0,0,0,0,0,0,0,0,1,0,0,0,0,0,1,1,0,0,0,0,0,0,0,0,0,0,0,0,0,0,0,0,0,0,0,0,0,0,0,0,0,0,0,0,0,0,0,0,0,0,0,0,0,0,0,0,0,0,0,0,0,0,0,0,0,0,0,0,0,0,1,0,0,0,0,0,0,0,0,0,0,0,0,0,0,0,0,0,0,0,0,0,0,0,0,0,0,0,0,0,0,0,0,0,0,0,0,0,0,0,0,0,0,0,0,0,1,1,0,0,0
44,43000,-386,9944,-9536,-453,-28,-10,32,-1,-1,429,-45,-36,0,-47,-62,47,20000,-15534,-30000,0,0,0,0,0,0,0,0,0,0,0,0,0,0,0,0,1,0,0,0,0,0,1,1,0,0,0,0,0,0,0,0,0,0,0,0,0,0,0,0,0,0,0,0,0,0,0,0,0,0,0,0,0,0,0,0,0,0,0,0,0,0,0,0,0,0,0,0,0,0,0,0,0,0,0,0,0,0,1,0,0,0,0,0,0,0,0,0,0,0,0,0,0,0,0,0,0,0,0,0,0,0,0,0,0,0,0,0,0,0,0,0,0,0,0,0,0,0,0,0,0,0,0,0,1,1,0,0,0
45,44000,-3909,11056,-7095,-2674,-22,-36,53,-1,-1,2663,-41,-39,-1,-49,-62,46,20000,-15534,-30000,0,0,0,0,0,0,0,0,0,0,0,0,0,0,0,0,1,0,0,0,0,0,1,1,0,0,0,0,0,0,0,0,0,0,0,0,0,0,0,0,0,0,0,0,0,0,0,0,0,0,0,0,0,0,0,0,0,0,0,0,0,0,0,0,0,0,0,0,0,0,0,0,0,0,0,0,0,0,1,0,0,0,0,0,0,0,0,0,0,0,0,0,0,0,0,0,0,0,0,0,0,0,0,0,0,0,0,0,0,0,0,0,0,0,0,0,0,0,0,0,0,0,0,0,1,1,0,0,0
