EMTDC_Simulation , 1,1999
12,12A, 0D
 1, Ua1: Sub88,A,Sub88,kV, .270212E-05,-.885451E-01,  .0,     0, 65535,     1.000000,1,S
 2, Ub1: Sub88,B,Sub88,kV, .277414E-05,-.899979E-01,  .0,     0, 65535,     1.000000,1,S
 3, Uc1: Sub88,C,Sub88,kV, .270206E-05,-.885371E-01,  .0,     0, 65535,     1.000000,1,S
 4, Ia1: Sub88,A,Sub88,kA, .932928E-07,-.234279E-02,  .0,     0, 65535,     1.000000,1,S
 5, Ib1: Sub88,B,Sub88,kA, .522705E-07,-.185650E-02,  .0,     0, 65535,     1.000000,1,S
 6, Ic1: Sub88,C,Sub88,kA, .446956E-07,-.156161E-02,  .0,     0, 65535,     1.000000,1,S
 7, Ua2: Sub11A,A,Sub11A,kV, .306139E-05,-.100315    ,  .0,     0, 65535,     1.000000,1,S
 8, Ub2: Sub11A,B,Sub11A,kV, .306138E-05,-.100313    ,  .0,     0, 65535,     1.000000,1,S
 9, Uc2: Sub11A,C,Sub11A,kV, .306224E-05,-.100370    ,  .0,     0, 65535,     1.000000,1,S
10, Ia2: Sub11A,A,Sub11A,kA, .712932E-06,-.193543E-01,  .0,     0, 65535,     1.000000,1,S
11, Ib2: Sub11A,B,Sub11A,kA, .113894E-06,-.435430E-02,  .0,     0, 65535,     1.000000,1,S
12, Ic2: Sub11A,C,Sub11A,kA, .127568E-06,-.468892E-02,  .0,     0, 65535,     1.000000,1,S
50
1
20000,     29999
26/03/2019,10:17:51.000000    
26/03/2019,10:17:51.000000    
ASCII
1
         1,         0, 32769, 32442, 32767, 25112, 35517, 34939, 32768, 32767, 32777, 27147, 38231, 36756
         2,        50, 32769, 32442, 32767, 25112, 35517, 34939, 32768, 32767, 32777, 27147, 38231, 36756
         3,       100, 32769, 32420, 32789, 25112, 35517, 34939, 32768, 32739, 32804, 27147, 38231, 36757
         4,       150, 32771, 32380, 32828, 25112, 35518, 34938, 32770, 32709, 32833, 27147, 38230, 36757
         5,       200, 32773, 32362, 32844, 25112, 35519, 34937, 32772, 32680, 32859, 27147, 38230, 36757
         6,       250, 32777, 32331, 32872, 25112, 35520, 34936, 32776, 32650, 32886, 27147, 38229, 36758
         7,       300, 32781, 32293, 32906, 25112, 35522, 34934, 32781, 32620, 32911, 27148, 38227, 36759
         8,       350, 32787, 32278, 32917, 25112, 35523, 34932, 32786, 32589, 32937, 27148, 38226, 36761
         9,       400, 32793, 32237, 32953, 25112, 35526, 34930, 32793, 32558, 32961, 27148, 38224, 36762
        10,       450, 32801, 32208, 32975, 25112, 35529, 34927, 32801, 32525, 32986, 27148, 38222, 36764
        11,       500, 32810, 32185, 32989, 25111, 35532, 34924, 32809, 32494, 33008, 27148, 38219, 36766
        12,       550, 32819, 32141, 33025, 25111, 35535, 34920, 32819, 32461, 33032, 27148, 38217, 36768
        13,       600, 32830, 32119, 33037, 25111, 35539, 34916, 32830, 32429, 33052, 27148, 38214, 36770
        14,       650, 32841, 32087, 33058, 25110, 35543, 34912, 32841, 32396, 33074, 27148, 38210, 36772
        15,       700, 32854, 32047, 33086, 25110, 35548, 34908, 32854, 32363, 33094, 27148, 38207, 36775
        16,       750, 32867, 32026, 33095, 25109, 35553, 34903, 32868, 32330, 33114, 27148, 38203, 36777
        17,       800, 32882, 31988, 33119, 25108, 35558, 34899, 32882, 32297, 33133, 27148, 38198, 36780
        18,       850, 32897, 31951, 33142, 25108, 35564, 34894, 32898, 32262, 33151, 27149, 38194, 36783
        19,       900, 32914, 31930, 33147, 25107, 35570, 34888, 32915, 32229, 33167, 27149, 38189, 36786
        20,       950, 32931, 31886, 33175, 25106, 35577, 34883, 32932, 32194, 33185, 27149, 38184, 36790
        21,      1000, 32949, 31857, 33186, 25104, 35584, 34877, 32951, 32161, 33200, 27149, 38179, 36793
        22,      1050, 32969, 31830, 33195, 25103, 35591, 34871, 32970, 32126, 33215, 27150, 38173, 36796
        23,      1100, 32989, 31784, 33221, 25102, 35599, 34865, 32990, 32093, 33228, 27150, 38168, 36800
        24,      1150, 33010, 31763, 33222, 25100, 35607, 34859, 33012, 32058, 33242, 27150, 38162, 36803
        25,      1200, 33032, 31725, 33239, 25098, 35616, 34852, 33034, 32024, 33253, 27151, 38155, 36807
        26,      1250, 33055, 31688, 33254, 25097, 35625, 34846, 33057, 31989, 33265, 27151, 38148, 36811
        27,      1300, 33078, 31664, 33255, 25095, 35634, 34839, 33081, 31956, 33274, 27151, 38141, 36814
        28,      1350, 33103, 31624, 33272, 25092, 35644, 34832, 33106, 31921, 33285, 27152, 38134, 36818
        29,      1400, 33128, 31591, 33281, 25090, 35654, 34825, 33132, 31888, 33292, 27152, 38127, 36822
        30,      1450, 33155, 31566, 33280, 25088, 35664, 34818, 33158, 31853, 33300, 27153, 38119, 36826
        31,      1500, 33182, 31522, 33298, 25085, 35675, 34811, 33186, 31820, 33306, 27154, 38111, 36830
        32,      1550, 33210, 31496, 33296, 25082, 35686, 34804, 33214, 31786, 33312, 27154, 38103, 36834
        33,      1600, 33238, 31466, 33298, 25079, 35698, 34797, 33243, 31753, 33316, 27155, 38094, 36838
        34,      1650, 33268, 31424, 33312, 25076, 35710, 34790, 33273, 31719, 33320, 27155, 38085, 36842
        35,      1700, 33298, 31404, 33302, 25072, 35722, 34782, 33303, 31687, 33321, 27156, 38077, 36845
        36,      1750, 33329, 31364, 33312, 25069, 35735, 34775, 33335, 31653, 33323, 27157, 38067, 36850
        37,      1800, 33361, 31333, 33313, 25065, 35748, 34768, 33367, 31621, 33323, 27158, 38058, 36853
        38,      1850, 33394, 31309, 33305, 25061, 35761, 34761, 33400, 31589, 33323, 27159, 38048, 36857
        39,      1900, 33427, 31269, 33312, 25057, 35775, 34754, 33433, 31557, 33321, 27160, 38038, 36861
        40,      1950, 33461, 31242, 33306, 25052, 35789, 34747, 33467, 31526, 33318, 27161, 38028, 36864
        41,      2000, 33496, 31216, 33297, 25048, 35803, 34740, 33502, 31495, 33314, 27162, 38018, 36868
        42,      2050, 33531, 31177, 33303, 25043, 35818, 34733, 33538, 31464, 33310, 27163, 38007, 36872
        43,      2100, 33567, 31156, 33288, 25037, 35833, 34726, 33574, 31434, 33303, 27164, 37997, 36875
        44,      2150, 33604, 31126, 33283, 25032, 35848, 34720, 33611, 31404, 33297, 27165, 37985, 36879
        45,      2200, 33641, 31090, 33282, 25027, 35863, 34713, 33648, 31375, 33288, 27166, 37975, 36882
        46,      2250, 33679, 31074, 33261, 25021, 35879, 34707, 33686, 31346, 33279, 27167, 37963, 36885
        47,      2300, 33717, 31037, 33261, 25015, 35895, 34700, 33725, 31318, 33269, 27168, 37952, 36888
        48,      2350, 33756, 31012, 33247, 25008, 35912, 34694, 33764, 31290, 33257, 27170, 37940, 36891
        49,      2400, 33795, 30991, 33229, 25002, 35928, 34689, 33804, 31263, 33245, 27171, 37928, 36894
        50,      2450, 33835, 30956, 33226, 24995, 35945, 34683, 33844, 31236, 33231, 27173, 37916, 36897
        51,      2500, 33876, 30937, 33204, 24988, 35962, 34678, 33885, 31210, 33217, 27174, 37905, 36899
        52,      2550, 33917, 30913, 33189, 24981, 35980, 34673, 33926, 31185, 33200, 27176, 37892, 36902
        53,      2600, 33958, 30882, 33179, 24973, 35997, 34668, 33967, 31160, 33184, 27177, 37880, 36904
        54,      2650, 34000, 30867, 33152, 24965, 36015, 34663, 34009, 31137, 33165, 27179, 37867, 36906
        55,      2700, 34042, 30840, 33138, 24957, 36033, 34659, 34052, 31113, 33147, 27180, 37855, 36908
        56,      2750, 34085, 30814, 33121, 24949, 36052, 34655, 34095, 31091, 33126, 27182, 37842, 36910
        57,      2800, 34127, 30802, 33091, 24940, 36070, 34651, 34138, 31069, 33105, 27184, 37829, 36911
        58,      2850, 34171, 30772, 33079, 24931, 36089, 34648, 34181, 31048, 33082, 27186, 37816, 36913
        59,      2900, 34214, 30756, 33052, 24922, 36108, 34645, 34225, 31027, 33060, 27188, 37804, 36913
        60,      2950, 34258, 30741, 33023, 24913, 36127, 34642, 34269, 31008, 33034, 27190, 37790, 36915
        61,      3000, 34302, 30713, 33008, 24903, 36146, 34640, 34313, 30989, 33010, 27192, 37777, 36915
        62,      3050, 34347, 30705, 32972, 24893, 36165, 34638, 34358, 30972, 32982, 27194, 37764, 36915
        63,      3100, 34391, 30684, 32949, 24883, 36185, 34637, 34403, 30954, 32955, 27196, 37751, 36916
        64,      3150, 34436, 30665, 32923, 24873, 36204, 34635, 34448, 30939, 32925, 27198, 37738, 36916
        65,      3200, 34481, 30658, 32886, 24862, 36224, 34635, 34493, 30923, 32896, 27200, 37724, 36915
        66,      3250, 34526, 30637, 32862, 24851, 36243, 34635, 34538, 30909, 32864, 27202, 37711, 36915
        67,      3300, 34571, 30624, 32830, 24840, 36263, 34635, 34583, 30895, 32833, 27204, 37698, 36914
        68,      3350, 34617, 30618, 32791, 24828, 36283, 34636, 34629, 30884, 32799, 27207, 37684, 36913
        69,      3400, 34662, 30598, 32766, 24816, 36303, 34637, 34674, 30871, 32766, 27209, 37671, 36911
        70,      3450, 34708, 30593, 32726, 24804, 36323, 34639, 34720, 30862, 32730, 27212, 37658, 36910
        71,      3500, 34753, 30586, 32688, 24792, 36343, 34641, 34765, 30852, 32695, 27214, 37645, 36908
        72,      3550, 34799, 30568, 32660, 24780, 36363, 34644, 34811, 30844, 32657, 27217, 37631, 36906
        73,      3600, 34844, 30572, 32611, 24767, 36383, 34647, 34857, 30836, 32619, 27219, 37618, 36903
        74,      3650, 34889, 30558, 32580, 24754, 36403, 34651, 34902, 30830, 32579, 27222, 37605, 36900
        75,      3700, 34935, 30553, 32540, 24740, 36423, 34655, 34947, 30824, 32540, 27224, 37592, 36897
        76,      3750, 34980, 30554, 32494, 24727, 36443, 34660, 34993, 30821, 32498, 27227, 37579, 36893
        77,      3800, 35025, 30544, 32459, 24713, 36463, 34666, 35038, 30817, 32457, 27230, 37566, 36890
        78,      3850, 35070, 30545, 32413, 24699, 36483, 34672, 35083, 30816, 32413, 27233, 37553, 36885
        79,      3900, 35115, 30546, 32367, 24685, 36503, 34679, 35128, 30814, 32370, 27236, 37540, 36881
        80,      3950, 35159, 30539, 32329, 24670, 36523, 34686, 35172, 30815, 32325, 27238, 37528, 36876
        81,      4000, 35204, 30546, 32278, 24655, 36542, 34694, 35216, 30816, 32279, 27241, 37515, 36871
        82,      4050, 35248, 30548, 32232, 24640, 36562, 34703, 35260, 30819, 32232, 27244, 37503, 36865
        83,      4100, 35291, 30545, 32191, 24625, 36581, 34712, 35304, 30822, 32185, 27247, 37490, 36859
        84,      4150, 35335, 30559, 32133, 24609, 36600, 34722, 35348, 30828, 32136, 27250, 37478, 36853
        85,      4200, 35378, 30556, 32093, 24594, 36619, 34733, 35391, 30834, 32088, 27253, 37466, 36847
        86,      4250, 35421, 30566, 32040, 24578, 36638, 34744, 35433, 30841, 32037, 27257, 37455, 36840
        87,      4300, 35463, 30578, 31986, 24561, 36657, 34756, 35476, 30850, 31986, 27260, 37443, 36832
        88,      4350, 35505, 30579, 31942, 24545, 36676, 34768, 35518, 30859, 31935, 27263, 37432, 36825
        89,      4400, 35547, 30595, 31885, 24528, 36694, 34782, 35559, 30870, 31882, 27266, 37420, 36816
        90,      4450, 35588, 30606, 31832, 24511, 36712, 34796, 35600, 30883, 31829, 27270, 37409, 36808
        91,      4500, 35628, 30614, 31783, 24494, 36730, 34810, 35640, 30896, 31776, 27273, 37399, 36799
        92,      4550, 35668, 30634, 31723, 24477, 36747, 34826, 35680, 30911, 31721, 27276, 37388, 36790
        93,      4600, 35708, 30646, 31671, 24460, 36765, 34842, 35720, 30927, 31666, 27280, 37377, 36780
        94,      4650, 35747, 30660, 31618, 24442, 36782, 34859, 35758, 30944, 31610, 27283, 37368, 36770
        95,      4700, 35785, 30685, 31554, 24424, 36798, 34877, 35796, 30963, 31553, 27286, 37358, 36760
        96,      4750, 35823, 30696, 31505, 24406, 36815, 34895, 35834, 30982, 31496, 27290, 37348, 36749
        97,      4800, 35860, 30720, 31444, 24388, 36831, 34914, 35871, 31004, 31437, 27293, 37339, 36738
        98,      4850, 35896, 30743, 31383, 24370, 36846, 34934, 35907, 31026, 31379, 27297, 37330, 36726
        99,      4900, 35932, 30759, 31331, 24351, 36862, 34955, 35943, 31050, 31320, 27300, 37321, 36714
       100,      4950, 35967, 30790, 31265, 24332, 36877, 34976, 35977, 31074, 31261, 27304, 37313, 36702
       101,      5000, 36001, 30812, 31208, 24314, 36891, 34999, 36011, 31101, 31200, 27307, 37305, 36689
       102,      5050, 36034, 30836, 31150, 24295, 36906, 35022, 36044, 31127, 31140, 27311, 37297, 36676
       103,      5100, 36067, 30869, 31083, 24275, 36919, 35046, 36077, 31157, 31078, 27315, 37289, 36662
       104,      5150, 36099, 30893, 31027, 24256, 36933, 35070, 36108, 31186, 31017, 27318, 37282, 36648
       105,      5200, 36130, 30923, 30964, 24237, 36946, 35096, 36139, 31219, 30954, 27322, 37276, 36634
       106,      5250, 36160, 30959, 30898, 24217, 36958, 35122, 36169, 31251, 30892, 27326, 37269, 36619
       107,      5300, 36189, 30985, 30842, 24198, 36970, 35149, 36198, 31285, 30829, 27329, 37263, 36604
       108,      5350, 36217, 31023, 30774, 24178, 36981, 35176, 36226, 31320, 30766, 27333, 37258, 36588
       109,      5400, 36245, 31060, 30710, 24158, 36992, 35205, 36253, 31357, 30702, 27337, 37252, 36572
       110,      5450, 36271, 31089, 30652, 24138, 37003, 35234, 36279, 31394, 30639, 27340, 37248, 36556
       111,      5500, 36297, 31135, 30580, 24118, 37013, 35265, 36304, 31434, 30574, 27344, 37243, 36539
       112,      5550, 36321, 31169, 30521, 24098, 37022, 35296, 36328, 31474, 30510, 27348, 37239, 36522
       113,      5600, 36344, 31209, 30457, 24078, 37031, 35327, 36351, 31516, 30445, 27352, 37236, 36504
       114,      5650, 36367, 31255, 30387, 24058, 37039, 35360, 36373, 31559, 30380, 27355, 37232, 36486
       115,      5700, 36388, 31291, 30328, 24038, 37047, 35393, 36394, 31604, 30315, 27359, 37230, 36468
       116,      5750, 36408, 31338, 30260, 24017, 37054, 35427, 36414, 31648, 30250, 27363, 37227, 36449
       117,      5800, 36427, 31385, 30193, 23997, 37060, 35462, 36432, 31696, 30184, 27367, 37225, 36430
       118,      5850, 36445, 31426, 30132, 23977, 37066, 35498, 36450, 31743, 30119, 27370, 37224, 36410
       119,      5900, 36462, 31478, 30063, 23956, 37071, 35535, 36466, 31793, 30053, 27374, 37223, 36390
       120,      5950, 36478, 31527, 29997, 23936, 37075, 35572, 36481, 31843, 29988, 27378, 37223, 36370
       121,      6000, 36492, 31572, 29937, 23915, 37079, 35610, 36495, 31896, 29922, 27381, 37223, 36349
       122,      6050, 36505, 31630, 29863, 23895, 37082, 35649, 36508, 31948, 29856, 27385, 37224, 36328
       123,      6100, 36517, 31676, 29804, 23875, 37085, 35689, 36519, 32003, 29790, 27389, 37225, 36306
       124,      6150, 36528, 31731, 29737, 23854, 37087, 35729, 36530, 32057, 29725, 27392, 37226, 36284
       125,      6200, 36537, 31789, 29668, 23834, 37088, 35770, 36539, 32115, 29659, 27396, 37228, 36262
       126,      6250, 36546, 31839, 29609, 23814, 37088, 35812, 36546, 32172, 29594, 27400, 37231, 36240
       127,      6300, 36552, 31901, 29538, 23793, 37088, 35855, 36553, 32231, 29529, 27403, 37234, 36217
       128,      6350, 36558, 31958, 29474, 23773, 37087, 35899, 36558, 32291, 29464, 27407, 37238, 36193
       129,      6400, 36562, 32014, 29412, 23753, 37085, 35943, 36561, 32352, 29399, 27410, 37242, 36170
       130,      6450, 36565, 32078, 29343, 23733, 37082, 35988, 36564, 32415, 29334, 27414, 37247, 36146
       131,      6500, 36567, 32138, 29281, 23713, 37079, 36034, 36565, 32478, 29270, 27418, 37252, 36121
       132,      6550, 36567, 32197, 29219, 23693, 37074, 36080, 36564, 32542, 29206, 27421, 37258, 36097
       133,      6600, 36566, 32267, 29149, 23673, 37069, 36127, 36562, 32608, 29142, 27424, 37264, 36072
       134,      6650, 36563, 32325, 29092, 23654, 37064, 36175, 36559, 32675, 29079, 27428, 37271, 36046
       135,      6700, 36559, 32394, 29026, 23634, 37057, 36223, 36554, 32743, 29016, 27431, 37279, 36021
       136,      6750, 36553, 32462, 28961, 23615, 37049, 36273, 36548, 32811, 28953, 27435, 37287, 35995
       137,      6800, 36546, 32524, 28905, 23595, 37041, 36323, 36541, 32881, 28891, 27438, 37296, 35968
       138,      6850, 36538, 32599, 28836, 23576, 37032, 36373, 36532, 32952, 28829, 27441, 37305, 35942
       139,      6900, 36528, 32665, 28779, 23557, 37022, 36425, 36521, 33024, 28768, 27444, 37315, 35915
       140,      6950, 36517, 32734, 28719, 23538, 37011, 36476, 36509, 33096, 28707, 27448, 37325, 35888
       141,      7000, 36504, 32809, 28655, 23520, 36999, 36529, 36496, 33170, 28647, 27451, 37337, 35860
       142,      7050, 36489, 32878, 28598, 23501, 36987, 36582, 36481, 33245, 28587, 27454, 37348, 35833
       143,      7100, 36473, 32951, 28539, 23483, 36973, 36636, 36464, 33320, 28529, 27457, 37361, 35805
       144,      7150, 36456, 33029, 28476, 23465, 36959, 36690, 36446, 33397, 28470, 27460, 37373, 35777
       145,      7200, 36437, 33098, 28424, 23447, 36944, 36745, 36426, 33473, 28413, 27463, 37387, 35748
       146,      7250, 36416, 33178, 28363, 23430, 36928, 36801, 36405, 33552, 28355, 27466, 37401, 35719
       147,      7300, 36394, 33255, 28306, 23413, 36910, 36857, 36382, 33631, 28300, 27468, 37416, 35690
       148,      7350, 36371, 33327, 28255, 23396, 36892, 36914, 36358, 33711, 28244, 27471, 37431, 35661
       149,      7400, 36346, 33412, 28194, 23379, 36874, 36971, 36332, 33791, 28190, 27474, 37447, 35632
       150,      7450, 36319, 33486, 28144, 23362, 36854, 37029, 36305, 33873, 28135, 27477, 37464, 35602
       151,      7500, 36291, 33566, 28090, 23346, 36833, 37087, 36276, 33954, 28083, 27479, 37481, 35572
       152,      7550, 36261, 33649, 28035, 23330, 36811, 37146, 36245, 34038, 28030, 27482, 37499, 35542
       153,      7600, 36229, 33726, 27987, 23314, 36788, 37205, 36213, 34120, 27980, 27484, 37518, 35512
       154,      7650, 36196, 33810, 27935, 23299, 36765, 37265, 36179, 34205, 27929, 27486, 37537, 35482
       155,      7700, 36162, 33893, 27883, 23284, 36740, 37325, 36144, 34289, 27880, 27489, 37556, 35451
       156,      7750, 36125, 33972, 27839, 23269, 36715, 37385, 36107, 34375, 27831, 27491, 37577, 35421
       157,      7800, 36088, 34059, 27787, 23255, 36688, 37446, 36068, 34460, 27784, 27493, 37598, 35390
       158,      7850, 36048, 34142, 27741, 23241, 36661, 37508, 36028, 34547, 27737, 27495, 37620, 35359
       159,      7900, 36007, 34223, 27699, 23227, 36632, 37570, 35987, 34633, 27693, 27497, 37642, 35328
       160,      7950, 35964, 34314, 27649, 23214, 36603, 37632, 35943, 34722, 27648, 27499, 37665, 35297
       161,      8000, 35920, 34394, 27610, 23201, 36573, 37694, 35898, 34809, 27606, 27501, 37688, 35266
       162,      8050, 35875, 34481, 27567, 23188, 36542, 37757, 35852, 34898, 27563, 27503, 37713, 35234
       163,      8100, 35827, 34571, 27522, 23176, 36509, 37820, 35804, 34986, 27523, 27504, 37737, 35203
       164,      8150, 35778, 34652, 27488, 23164, 36476, 37883, 35754, 35076, 27483, 27506, 37763, 35171
       165,      8200, 35728, 34743, 27445, 23153, 36442, 37947, 35703, 35164, 27446, 27507, 37789, 35140
       166,      8250, 35675, 34829, 27408, 23142, 36407, 38011, 35650, 35255, 27408, 27509, 37815, 35108
       167,      8300, 35622, 34915, 27374, 23132, 36371, 38075, 35595, 35344, 27373, 27510, 37843, 35076
       168,      8350, 35566, 35006, 27336, 23121, 36334, 38139, 35539, 35436, 27338, 27511, 37871, 35045
       169,      8400, 35510, 35093, 27304, 23112, 36295, 38204, 35482, 35525, 27306, 27512, 37899, 35013
       170,      8450, 35451, 35179, 27274, 23103, 36256, 38269, 35423, 35617, 27274, 27513, 37928, 34981
       171,      8500, 35391, 35272, 27238, 23094, 36217, 38333, 35362, 35708, 27244, 27514, 37958, 34950
       172,      8550, 35330, 35356, 27213, 23086, 36176, 38398, 35300, 35799, 27214, 27515, 37988, 34918
       173,      8600, 35266, 35447, 27183, 23078, 36134, 38463, 35236, 35890, 27187, 27516, 38019, 34886
       174,      8650, 35202, 35538, 27154, 23071, 36091, 38529, 35170, 35982, 27161, 27517, 38051, 34855
       175,      8700, 35136, 35622, 27135, 23064, 36047, 38594, 35104, 36073, 27137, 27517, 38083, 34823
       176,      8750, 35068, 35717, 27105, 23058, 36002, 38659, 35035, 36165, 27113, 27518, 38116, 34791
       177,      8800, 34999, 35802, 27086, 23052, 35957, 38724, 34965, 36256, 27092, 27518, 38149, 34760
