EMTDC_Simulation , 1,1999
12,12A, 0D
 1, Ua1: Sub88,A,Sub88,kV, .275073E-05,-.901402E-01,  .0,     0, 65535,     1.000000,1,S
 2, Ub1: Sub88,B,Sub88,kV, .308411E-05,-.100047    ,  .0,     0, 65535,     1.000000,1,S
 3, Uc1: Sub88,C,Sub88,kV, .281255E-05,-.914688E-01,  .0,     0, 65535,     1.000000,1,S
 4, Ia1: Sub88,A,Sub88,kA, .304214E-06,-.794467E-02,  .0,     0, 65535,     1.000000,1,S
 5, Ib1: Sub88,B,Sub88,kA, .794132E-07,-.267018E-02,  .0,     0, 65535,     1.000000,1,S
 6, Ic1: Sub88,C,Sub88,kA, .684483E-07,-.241637E-02,  .0,     0, 65535,     1.000000,1,S
 7, Ua2: Sub11A,A,Sub11A,kV, .306089E-05,-.100299    ,  .0,     0, 65535,     1.000000,1,S
 8, Ub2: Sub11A,B,Sub11A,kV, .306091E-05,-.100297    ,  .0,     0, 65535,     1.000000,1,S
 9, Uc2: Sub11A,C,Sub11A,kV, .306090E-05,-.100298    ,  .0,     0, 65535,     1.000000,1,S
10, Ia2: Sub11A,A,Sub11A,kA, .360772E-06,-.101342E-01,  .0,     0, 65535,     1.000000,1,S
11, Ib2: Sub11A,B,Sub11A,kA, .145897E-06,-.553890E-02,  .0,     0, 65535,     1.000000,1,S
12, Ic2: Sub11A,C,Sub11A,kA, .157191E-06,-.577489E-02,  .0,     0, 65535,     1.000000,1,S
50
1
20000,     29999
26/03/2019,09:08:27.000000    
26/03/2019,09:08:27.000000    
ASCII
1
         1,         0, 32770, 32440, 32522, 26115, 33624, 35302, 32768, 32767, 32768, 28090, 37964, 36738
         2,        50, 32770, 32440, 32522, 26115, 33624, 35302, 32768, 32767, 32768, 28090, 37964, 36738
         3,       100, 32770, 32422, 32541, 26115, 33624, 35302, 32768, 32739, 32795, 28090, 37964, 36739
         4,       150, 32771, 32383, 32582, 26115, 33624, 35302, 32770, 32709, 32824, 28090, 37964, 36739
         5,       200, 32774, 32362, 32603, 26115, 33625, 35301, 32772, 32680, 32850, 28090, 37963, 36739
         6,       250, 32778, 32343, 32620, 26115, 33625, 35300, 32776, 32650, 32877, 28090, 37963, 36740
         7,       300, 32782, 32306, 32656, 26115, 33626, 35299, 32781, 32620, 32902, 28090, 37962, 36741
         8,       350, 32788, 32280, 32679, 26115, 33627, 35299, 32786, 32588, 32928, 28091, 37961, 36741
         9,       400, 32794, 32259, 32695, 26115, 33628, 35297, 32793, 32558, 32951, 28091, 37959, 36742
        10,       450, 32802, 32227, 32723, 26115, 33630, 35296, 32801, 32525, 32977, 28091, 37958, 36744
        11,       500, 32810, 32194, 32751, 26115, 33631, 35294, 32809, 32494, 32999, 28091, 37956, 36745
        12,       550, 32820, 32174, 32764, 26115, 33633, 35292, 32819, 32461, 33022, 28091, 37954, 36746
        13,       600, 32830, 32145, 32785, 26115, 33635, 35290, 32830, 32429, 33043, 28091, 37952, 36748
        14,       650, 32842, 32105, 32817, 26115, 33637, 35288, 32841, 32395, 33066, 28091, 37950, 36750
        15,       700, 32855, 32087, 32825, 26115, 33640, 35286, 32854, 32364, 33085, 28091, 37948, 36751
        16,       750, 32868, 32058, 32844, 26115, 33643, 35284, 32868, 32329, 33105, 28092, 37945, 36753
        17,       800, 32883, 32017, 32874, 26114, 33645, 35281, 32882, 32296, 33124, 28092, 37942, 36755
        18,       850, 32898, 31996, 32882, 26114, 33648, 35279, 32898, 32262, 33142, 28092, 37939, 36757
        19,       900, 32915, 31970, 32895, 26114, 33652, 35276, 32915, 32229, 33158, 28093, 37935, 36760
        20,       950, 32932, 31928, 32924, 26114, 33655, 35273, 32932, 32194, 33176, 28093, 37932, 36762
        21,      1000, 32950, 31905, 32931, 26113, 33659, 35270, 32951, 32161, 33191, 28094, 37929, 36764
        22,      1050, 32969, 31879, 32940, 26113, 33662, 35267, 32970, 32126, 33206, 28094, 37925, 36767
        23,      1100, 32990, 31839, 32965, 26113, 33667, 35264, 32990, 32092, 33219, 28095, 37921, 36769
        24,      1150, 33011, 31812, 32973, 26112, 33671, 35261, 33012, 32057, 33233, 28095, 37917, 36772
        25,      1200, 33033, 31787, 32980, 26112, 33675, 35257, 33034, 32024, 33244, 28096, 37912, 36774
        26,      1250, 33056, 31752, 32995, 26112, 33680, 35254, 33057, 31989, 33256, 28097, 37907, 36777
        27,      1300, 33079, 31717, 33011, 26111, 33685, 35251, 33081, 31955, 33266, 28097, 37903, 36780
        28,      1350, 33104, 31697, 33009, 26111, 33690, 35247, 33106, 31921, 33275, 28098, 37898, 36782
        29,      1400, 33129, 31663, 33021, 26110, 33695, 35243, 33132, 31888, 33283, 28099, 37892, 36785
        30,      1450, 33156, 31625, 33037, 26109, 33700, 35240, 33158, 31853, 33292, 28100, 37887, 36788
        31,      1500, 33183, 31606, 33031, 26109, 33706, 35236, 33186, 31820, 33297, 28101, 37882, 36790
        32,      1550, 33211, 31574, 33039, 26108, 33712, 35232, 33214, 31786, 33303, 28102, 37876, 36794
        33,      1600, 33240, 31535, 33053, 26107, 33718, 35229, 33243, 31752, 33308, 28103, 37870, 36796
        34,      1650, 33269, 31516, 33046, 26107, 33724, 35225, 33273, 31719, 33310, 28104, 37864, 36799
        35,      1700, 33300, 31487, 33048, 26106, 33731, 35221, 33303, 31686, 33313, 28106, 37858, 36802
        36,      1750, 33331, 31448, 33061, 26105, 33737, 35217, 33335, 31653, 33314, 28107, 37852, 36804
        37,      1800, 33363, 31428, 33051, 26104, 33744, 35214, 33367, 31621, 33315, 28108, 37846, 36807
        38,      1850, 33395, 31400, 33050, 26103, 33751, 35210, 33399, 31589, 33313, 28110, 37839, 36810
        39,      1900, 33429, 31365, 33056, 26102, 33758, 35206, 33433, 31557, 33313, 28111, 37832, 36813
        40,      1950, 33463, 31339, 33051, 26101, 33765, 35203, 33467, 31526, 33309, 28113, 37825, 36815
        41,      2000, 33497, 31317, 33041, 26100, 33773, 35199, 33502, 31495, 33305, 28115, 37818, 36818
        42,      2050, 33533, 31284, 33043, 26098, 33780, 35195, 33538, 31464, 33300, 28117, 37811, 36820
        43,      2100, 33569, 31254, 33040, 26097, 33788, 35192, 33574, 31433, 33295, 28119, 37804, 36823
        44,      2150, 33605, 31237, 33023, 26096, 33796, 35189, 33611, 31405, 33287, 28120, 37796, 36825
        45,      2200, 33642, 31205, 33022, 26095, 33804, 35185, 33648, 31374, 33280, 28123, 37789, 36828
        46,      2250, 33680, 31175, 33018, 26093, 33813, 35182, 33686, 31346, 33270, 28125, 37781, 36830
        47,      2300, 33719, 31160, 32997, 26092, 33821, 35179, 33725, 31317, 33260, 28127, 37773, 36832
        48,      2350, 33758, 31131, 32990, 26090, 33830, 35175, 33764, 31291, 33248, 28129, 37765, 36834
        49,      2400, 33797, 31099, 32986, 26089, 33838, 35172, 33804, 31262, 33237, 28132, 37757, 36836
        50,      2450, 33837, 31087, 32961, 26087, 33847, 35170, 33844, 31237, 33221, 28134, 37749, 36838
        51,      2500, 33878, 31060, 32951, 26085, 33856, 35167, 33885, 31210, 33208, 28137, 37741, 36840
        52,      2550, 33919, 31030, 32943, 26083, 33865, 35164, 33926, 31185, 33191, 28139, 37733, 36841
        53,      2600, 33960, 31016, 32918, 26082, 33875, 35162, 33967, 31160, 33175, 28142, 37724, 36843
        54,      2650, 34002, 30994, 32901, 26080, 33884, 35159, 34009, 31137, 33156, 28145, 37716, 36844
        55,      2700, 34044, 30968, 32889, 26078, 33894, 35157, 34052, 31112, 33138, 28148, 37707, 36846
        56,      2750, 34087, 30951, 32866, 26076, 33903, 35155, 34095, 31091, 33117, 28151, 37699, 36847
        57,      2800, 34130, 30935, 32841, 26074, 33913, 35153, 34138, 31068, 33096, 28154, 37690, 36848
        58,      2850, 34173, 30910, 32826, 26071, 33923, 35151, 34181, 31048, 33073, 28157, 37681, 36849
        59,      2900, 34217, 30891, 32805, 26069, 33932, 35150, 34225, 31027, 33051, 28160, 37672, 36849
        60,      2950, 34261, 30882, 32771, 26067, 33942, 35148, 34269, 31008, 33025, 28163, 37664, 36850
        61,      3000, 34305, 30857, 32755, 26065, 33952, 35147, 34313, 30989, 33000, 28167, 37654, 36851
        62,      3050, 34349, 30839, 32731, 26062, 33962, 35146, 34358, 30971, 32973, 28170, 37646, 36851
        63,      3100, 34394, 30834, 32694, 26060, 33973, 35145, 34403, 30955, 32945, 28174, 37637, 36851
        64,      3150, 34439, 30812, 32674, 26057, 33983, 35144, 34448, 30938, 32917, 28177, 37628, 36851
        65,      3200, 34484, 30795, 32648, 26055, 33993, 35144, 34493, 30923, 32887, 28181, 37619, 36850
        66,      3250, 34529, 30792, 32608, 26052, 34004, 35144, 34538, 30909, 32856, 28185, 37610, 36850
        67,      3300, 34574, 30775, 32582, 26049, 34014, 35144, 34583, 30896, 32824, 28189, 37601, 36849
        68,      3350, 34620, 30759, 32555, 26046, 34024, 35144, 34629, 30883, 32791, 28193, 37592, 36848
        69,      3400, 34665, 30756, 32514, 26043, 34035, 35145, 34674, 30872, 32756, 28197, 37583, 36847
        70,      3450, 34711, 30744, 32482, 26041, 34045, 35146, 34720, 30861, 32721, 28201, 37574, 36846
        71,      3500, 34756, 30732, 32452, 26038, 34056, 35147, 34765, 30852, 32685, 28206, 37565, 36845
        72,      3550, 34802, 30727, 32413, 26034, 34066, 35148, 34811, 30843, 32648, 28210, 37556, 36843
        73,      3600, 34847, 30724, 32371, 26031, 34077, 35150, 34856, 30837, 32609, 28214, 37547, 36841
        74,      3650, 34893, 30710, 32342, 26028, 34088, 35152, 34902, 30829, 32571, 28219, 37538, 36839
        75,      3700, 34938, 30708, 32300, 26025, 34098, 35154, 34947, 30825, 32530, 28223, 37529, 36837
        76,      3750, 34983, 30710, 32253, 26022, 34109, 35157, 34993, 30820, 32490, 28228, 37520, 36834
        77,      3800, 35028, 30698, 32222, 26018, 34119, 35159, 35038, 30818, 32447, 28233, 37512, 36831
        78,      3850, 35074, 30697, 32179, 26015, 34129, 35163, 35083, 30815, 32405, 28238, 37503, 36828
        79,      3900, 35118, 30704, 32128, 26011, 34140, 35166, 35127, 30815, 32359, 28243, 37495, 36825
        80,      3950, 35163, 30696, 32093, 26008, 34150, 35170, 35172, 30814, 32316, 28247, 37486, 36822
        81,      4000, 35207, 30696, 32050, 26004, 34161, 35174, 35216, 30817, 32269, 28253, 37478, 36818
        82,      4050, 35252, 30707, 31994, 26000, 34171, 35178, 35260, 30818, 32223, 28258, 37469, 36814
        83,      4100, 35295, 30702, 31957, 25997, 34181, 35183, 35304, 30823, 32175, 28263, 37461, 36810
        84,      4150, 35339, 30706, 31910, 25993, 34191, 35188, 35348, 30827, 32128, 28268, 37453, 36805
        85,      4200, 35382, 30716, 31857, 25989, 34201, 35194, 35391, 30834, 32077, 28273, 37445, 36800
        86,      4250, 35425, 30721, 31810, 25985, 34211, 35199, 35433, 30840, 32029, 28279, 37437, 36795
        87,      4300, 35467, 30723, 31765, 25981, 34221, 35206, 35476, 30850, 31977, 28284, 37429, 36790
        88,      4350, 35509, 30736, 31710, 25977, 34231, 35212, 35518, 30859, 31926, 28290, 37422, 36784
        89,      4400, 35551, 30748, 31656, 25973, 34240, 35219, 35559, 30871, 31873, 28295, 37414, 36779
        90,      4450, 35592, 30750, 31614, 25969, 34250, 35226, 35600, 30882, 31821, 28301, 37407, 36773
        91,      4500, 35633, 30766, 31556, 25965, 34259, 35234, 35640, 30896, 31766, 28307, 37400, 36766
        92,      4550, 35673, 30783, 31498, 25961, 34268, 35242, 35680, 30911, 31711, 28312, 37393, 36760
        93,      4600, 35712, 30789, 31454, 25956, 34278, 35250, 35720, 30926, 31656, 28318, 37386, 36753
        94,      4650, 35751, 30807, 31396, 25952, 34287, 35259, 35758, 30944, 31600, 28324, 37379, 36745
        95,      4700, 35790, 30829, 31334, 25948, 34295, 35268, 35796, 30963, 31543, 28330, 37373, 36738
        96,      4750, 35828, 30837, 31288, 25943, 34304, 35278, 35834, 30982, 31486, 28336, 37366, 36730
        97,      4800, 35865, 30858, 31229, 25939, 34312, 35288, 35871, 31003, 31428, 28342, 37360, 36722
        98,      4850, 35901, 30883, 31166, 25934, 34321, 35298, 35907, 31026, 31370, 28348, 37354, 36714
        99,      4900, 35937, 30897, 31115, 25930, 34329, 35309, 35943, 31049, 31311, 28354, 37348, 36706
       100,      4950, 35972, 30919, 31057, 25925, 34337, 35320, 35977, 31074, 31251, 28360, 37343, 36697
       101,      5000, 36006, 30946, 30993, 25921, 34344, 35332, 36011, 31100, 31191, 28366, 37338, 36687
       102,      5050, 36040, 30969, 30936, 25916, 34352, 35343, 36044, 31128, 31130, 28372, 37333, 36678
       103,      5100, 36073, 30989, 30881, 25911, 34359, 35356, 36077, 31156, 31069, 28378, 37328, 36668
       104,      5150, 36105, 31021, 30815, 25907, 34366, 35369, 36108, 31187, 31007, 28384, 37323, 36658
       105,      5200, 36135, 31050, 30754, 25902, 34373, 35382, 36139, 31218, 30946, 28391, 37319, 36648
       106,      5250, 36166, 31071, 30701, 25897, 34379, 35395, 36169, 31251, 30882, 28397, 37315, 36638
       107,      5300, 36195, 31107, 30633, 25892, 34386, 35409, 36198, 31284, 30820, 28403, 37311, 36627
       108,      5350, 36223, 31140, 30569, 25888, 34392, 35424, 36226, 31321, 30756, 28410, 37307, 36616
       109,      5400, 36251, 31164, 30515, 25883, 34398, 35439, 36253, 31356, 30694, 28416, 37304, 36604
       110,      5450, 36277, 31202, 30448, 25878, 34403, 35454, 36279, 31395, 30628, 28422, 37301, 36592
       111,      5500, 36303, 31241, 30381, 25873, 34408, 35469, 36304, 31433, 30565, 28428, 37298, 36581
       112,      5550, 36327, 31267, 30327, 25868, 34413, 35485, 36328, 31474, 30500, 28435, 37296, 36568
       113,      5600, 36351, 31309, 30259, 25863, 34418, 35502, 36351, 31515, 30436, 28441, 37294, 36556
       114,      5650, 36373, 31350, 30192, 25858, 34422, 35519, 36373, 31560, 30370, 28448, 37292, 36543
       115,      5700, 36395, 31383, 30135, 25853, 34426, 35536, 36394, 31602, 30306, 28454, 37290, 36530
       116,      5750, 36415, 31424, 30070, 25848, 34430, 35554, 36414, 31649, 30240, 28460, 37289, 36516
       117,      5800, 36434, 31469, 30002, 25843, 34433, 35572, 36432, 31695, 30175, 28467, 37288, 36503
       118,      5850, 36452, 31510, 29940, 25838, 34437, 35591, 36450, 31744, 30109, 28473, 37287, 36489
       119,      5900, 36469, 31549, 29881, 25833, 34439, 35610, 36466, 31792, 30044, 28479, 37287, 36475
       120,      5950, 36485, 31600, 29809, 25828, 34442, 35629, 36481, 31844, 29977, 28485, 37287, 36460
       121,      6000, 36499, 31644, 29747, 25823, 34444, 35649, 36495, 31895, 29912, 28492, 37287, 36446
       122,      6050, 36513, 31685, 29688, 25818, 34445, 35669, 36508, 31948, 29846, 28498, 37288, 36431
       123,      6100, 36525, 31740, 29616, 25813, 34447, 35690, 36519, 32002, 29781, 28504, 37289, 36415
       124,      6150, 36535, 31788, 29553, 25808, 34448, 35711, 36530, 32058, 29715, 28510, 37290, 36400
       125,      6200, 36545, 31832, 29496, 25803, 34448, 35732, 36539, 32114, 29650, 28517, 37292, 36384
       126,      6250, 36553, 31889, 29425, 25798, 34448, 35754, 36546, 32172, 29584, 28523, 37294, 36368
       127,      6300, 36560, 31942, 29360, 25793, 34448, 35776, 36553, 32231, 29519, 28529, 37296, 36352
       128,      6350, 36566, 31988, 29304, 25789, 34448, 35799, 36558, 32291, 29454, 28535, 37299, 36335
       129,      6400, 36570, 32048, 29234, 25784, 34447, 35822, 36561, 32352, 29389, 28541, 37302, 36318
       130,      6450, 36573, 32104, 29170, 25779, 34445, 35845, 36564, 32415, 29324, 28547, 37306, 36302
       131,      6500, 36575, 32156, 29111, 25774, 34444, 35869, 36565, 32478, 29260, 28553, 37310, 36284
       132,      6550, 36575, 32214, 29048, 25769, 34441, 35893, 36564, 32542, 29196, 28559, 37314, 36267
       133,      6600, 36574, 32276, 28981, 25764, 34439, 35918, 36562, 32608, 29132, 28564, 37319, 36249
       134,      6650, 36571, 32331, 28922, 25759, 34436, 35943, 36559, 32674, 29069, 28570, 37324, 36231
       135,      6700, 36567, 32389, 28863, 25754, 34432, 35968, 36554, 32743, 29005, 28576, 37329, 36213
       136,      6750, 36562, 32456, 28794, 25750, 34428, 35994, 36548, 32811, 28943, 28582, 37335, 36195
       137,      6800, 36555, 32515, 28737, 25745, 34424, 36020, 36541, 32881, 28880, 28587, 37341, 36176
       138,      6850, 36546, 32574, 28680, 25740, 34419, 36046, 36532, 32951, 28820, 28593, 37348, 36157
       139,      6900, 36537, 32644, 28613, 25736, 34414, 36073, 36521, 33024, 28757, 28598, 37355, 36138
       140,      6950, 36525, 32707, 28555, 25731, 34408, 36100, 36509, 33096, 28697, 28603, 37363, 36119
       141,      7000, 36513, 32766, 28503, 25727, 34402, 36127, 36496, 33170, 28637, 28609, 37371, 36100
       142,      7050, 36498, 32840, 28436, 25722, 34396, 36155, 36481, 33244, 28578, 28614, 37379, 36080
       143,      7100, 36482, 32905, 28380, 25718, 34388, 36183, 36464, 33321, 28518, 28619, 37387, 36061
       144,      7150, 36465, 32969, 28327, 25713, 34381, 36211, 36446, 33396, 28461, 28624, 37397, 36041
       145,      7200, 36446, 33042, 28265, 25709, 34373, 36240, 36426, 33474, 28402, 28629, 37406, 36021
       146,      7250, 36426, 33111, 28209, 25705, 34364, 36269, 36405, 33551, 28346, 28633, 37416, 36001
       147,      7300, 36404, 33178, 28157, 25700, 34355, 36298, 36382, 33631, 28289, 28638, 37427, 35980
       148,      7350, 36380, 33250, 28102, 25696, 34346, 36328, 36358, 33710, 28234, 28643, 37437, 35960
       149,      7400, 36355, 33325, 28044, 25692, 34336, 36357, 36332, 33792, 28178, 28647, 37449, 35939
       150,      7450, 36328, 33393, 27996, 25688, 34326, 36388, 36305, 33872, 28126, 28652, 37460, 35918
       151,      7500, 36300, 33465, 27944, 25684, 34315, 36418, 36276, 33955, 28072, 28656, 37472, 35897
       152,      7550, 36270, 33544, 27886, 25680, 34303, 36449, 36245, 34037, 28020, 28660, 37485, 35876
       153,      7600, 36239, 33614, 27841, 25676, 34291, 36479, 36213, 34121, 27969, 28664, 37498, 35855
       154,      7650, 36206, 33687, 27793, 25673, 34279, 36511, 36179, 34204, 27919, 28668, 37511, 35834
       155,      7700, 36171, 33768, 27737, 25669, 34266, 36542, 36144, 34290, 27869, 28672, 37525, 35812
       156,      7750, 36135, 33841, 27694, 25665, 34253, 36573, 36107, 34374, 27821, 28675, 37539, 35791
       157,      7800, 36097, 33914, 27651, 25662, 34238, 36605, 36068, 34460, 27774, 28679, 37554, 35769
       158,      7850, 36058, 33997, 27597, 25658, 34224, 36637, 36028, 34546, 27728, 28682, 37569, 35747
       159,      7900, 36017, 34071, 27556, 25655, 34209, 36669, 35987, 34634, 27682, 28685, 37584, 35726
       160,      7950, 35975, 34146, 27515, 25652, 34194, 36702, 35943, 34721, 27638, 28688, 37600, 35704
       161,      8000, 35930, 34229, 27468, 25649, 34178, 36734, 35898, 34809, 27595, 28691, 37616, 35682
       162,      8050, 35885, 34307, 27427, 25645, 34161, 36767, 35852, 34897, 27553, 28694, 37633, 35660
       163,      8100, 35837, 34383, 27390, 25643, 34144, 36800, 35804, 34986, 27513, 28697, 37650, 35638
       164,      8150, 35788, 34464, 27349, 25640, 34127, 36833, 35754, 35075, 27473, 28699, 37668, 35616
       165,      8200, 35738, 34547, 27307, 25637, 34109, 36866, 35703, 35164, 27435, 28702, 37686, 35594
       166,      8250, 35686, 34622, 27277, 25634, 34090, 36899, 35650, 35255, 27398, 28704, 37704, 35572
       167,      8300, 35632, 34703, 27240, 25632, 34071, 36933, 35595, 35344, 27363, 28706, 37723, 35550
       168,      8350, 35577, 34788, 27200, 25629, 34052, 36966, 35539, 35435, 27327, 28708, 37742, 35527
       169,      8400, 35520, 34864, 27173, 25627, 34032, 37000, 35482, 35525, 27295, 28709, 37762, 35505
       170,      8450, 35462, 34944, 27142, 25625, 34011, 37034, 35423, 35617, 27263, 28711, 37782, 35483
       171,      8500, 35402, 35032, 27105, 25623, 33990, 37068, 35362, 35707, 27233, 28712, 37802, 35461
       172,      8550, 35340, 35108, 27082, 25621, 33968, 37101, 35300, 35799, 27204, 28714, 37823, 35439
       173,      8600, 35277, 35188, 27055, 25619, 33946, 37135, 35236, 35889, 27177, 28715, 37845, 35417
       174,      8650, 35213, 35276, 27022, 25617, 33924, 37169, 35170, 35982, 27150, 28715, 37866, 35395
       175,      8700, 35146, 35353, 27003, 25615, 33901, 37203, 35104, 36072, 27127, 28716, 37888, 35373
       176,      8750, 35079, 35434, 26980, 25614, 33877, 37237, 35035, 36165, 27102, 28716, 37911, 35351
       177,      8800, 35010, 35518, 26955, 25612, 33853, 37271, 34965, 36255, 27082, 28717, 37934, 35329
