EMTDC_Simulation , 1,1999
12,12A, 0D
 1, Ua1: Sub88,A,Sub88,kV, .252989E-05,-.829088E-01,  .0,     0, 65535,     1.000000,1,S
 2, Ub1: Sub88,B,Sub88,kV, .256273E-05,-.837589E-01,  .0,     0, 65535,     1.000000,1,S
 3, Uc1: Sub88,C,Sub88,kV, .252986E-05,-.828905E-01,  .0,     0, 65535,     1.000000,1,S
 4, Ia1: Sub88,A,Sub88,kA, .405265E-06,-.118269E-01,  .0,     0, 65535,     1.000000,1,S
 5, Ib1: Sub88,B,Sub88,kA, .454421E-07,-.153459E-02,  .0,     0, 65535,     1.000000,1,S
 6, Ic1: Sub88,C,Sub88,kA, .734356E-07,-.271408E-02,  .0,     0, 65535,     1.000000,1,S
 7, Ua2: Sub11A,A,Sub11A,kV, .254496E-05,-.833908E-01,  .0,     0, 65535,     1.000000,1,S
 8, Ub2: Sub11A,B,Sub11A,kV, .254503E-05,-.833936E-01,  .0,     0, 65535,     1.000000,1,S
 9, Uc2: Sub11A,C,Sub11A,kV, .254622E-05,-.834726E-01,  .0,     0, 65535,     1.000000,1,S
10, Ia2: Sub11A,A,Sub11A,kA, .305184E-06,-.921090E-02,  .0,     0, 65535,     1.000000,1,S
11, Ib2: Sub11A,B,Sub11A,kA, .977344E-07,-.342998E-02,  .0,     0, 65535,     1.000000,1,S
12, Ic2: Sub11A,C,Sub11A,kA, .413534E-07,-.155372E-02,  .0,     0, 65535,     1.000000,1,S
50
1
20000,     29999
27/03/2019,08:45:02.000000    
27/03/2019,08:45:02.000000    
ASCII
1
         1,         0, 32772, 32683, 32765, 29183, 33770, 36959, 32767, 32767, 32783, 30181, 35095, 37572
         2,        50, 32772, 32683, 32765, 29183, 33770, 36959, 32767, 32767, 32783, 30181, 35095, 37572
         3,       100, 32775, 32658, 32787, 29183, 33770, 36959, 32768, 32740, 32810, 30181, 35095, 37573
         4,       150, 32781, 32619, 32820, 29183, 33769, 36959, 32770, 32707, 32840, 30181, 35095, 37573
         5,       200, 32786, 32598, 32837, 29183, 33769, 36958, 32773, 32681, 32863, 30181, 35095, 37574
         6,       250, 32794, 32563, 32864, 29184, 33767, 36958, 32777, 32648, 32892, 30181, 35095, 37576
         7,       300, 32802, 32530, 32890, 29184, 33766, 36957, 32782, 32618, 32917, 30181, 35095, 37577
         8,       350, 32811, 32507, 32905, 29184, 33764, 36957, 32788, 32588, 32941, 30180, 35095, 37580
         9,       400, 32821, 32466, 32935, 29184, 33762, 36956, 32795, 32555, 32967, 30180, 35095, 37583
        10,       450, 32832, 32440, 32951, 29185, 33760, 36955, 32803, 32524, 32990, 30179, 35095, 37586
        11,       500, 32844, 32410, 32970, 29185, 33758, 36954, 32812, 32493, 33012, 30179, 35095, 37590
        12,       550, 32857, 32370, 32997, 29186, 33755, 36953, 32822, 32458, 33037, 30178, 35095, 37594
        13,       600, 32871, 32348, 33006, 29186, 33753, 36952, 32833, 32429, 33055, 30178, 35095, 37599
        14,       650, 32886, 32308, 33031, 29187, 33749, 36950, 32845, 32393, 33078, 30177, 35095, 37604
        15,       700, 32902, 32277, 33047, 29188, 33747, 36948, 32858, 32361, 33098, 30176, 35095, 37609
        16,       750, 32918, 32249, 33059, 29188, 33743, 36947, 32872, 32329, 33116, 30176, 35094, 37616
        17,       800, 32936, 32208, 33082, 29189, 33740, 36945, 32888, 32293, 33137, 30175, 35094, 37623
        18,       850, 32954, 32182, 33090, 29190, 33737, 36942, 32903, 32261, 33153, 30174, 35094, 37629
        19,       900, 32974, 32147, 33106, 29191, 33733, 36940, 32920, 32227, 33170, 30173, 35093, 37638
        20,       950, 32995, 32110, 33122, 29192, 33729, 36937, 32938, 32191, 33187, 30172, 35093, 37645
        21,      1000, 33016, 32085, 33127, 29193, 33726, 36934, 32957, 32160, 33200, 30171, 35092, 37654
        22,      1050, 33038, 32045, 33145, 29194, 33722, 36931, 32977, 32123, 33217, 30170, 35092, 37663
        23,      1100, 33061, 32014, 33153, 29195, 33718, 36927, 32998, 32090, 33229, 30169, 35091, 37672
        24,      1150, 33085, 31986, 33158, 29196, 33714, 36924, 33019, 32057, 33241, 30168, 35090, 37683
        25,      1200, 33110, 31944, 33175, 29197, 33711, 36920, 33042, 32020, 33255, 30167, 35089, 37693
        26,      1250, 33135, 31921, 33173, 29198, 33707, 36915, 33065, 31988, 33263, 30166, 35088, 37704
        27,      1300, 33162, 31883, 33185, 29199, 33703, 36911, 33090, 31953, 33274, 30165, 35087, 37715
        28,      1350, 33189, 31850, 33191, 29201, 33700, 36906, 33115, 31918, 33284, 30163, 35086, 37727
        29,      1400, 33217, 31824, 33190, 29202, 33696, 36901, 33141, 31886, 33290, 30162, 35084, 37740
        30,      1450, 33246, 31785, 33201, 29203, 33693, 36896, 33168, 31850, 33299, 30161, 35083, 37753
        31,      1500, 33275, 31759, 33198, 29205, 33689, 36890, 33195, 31818, 33304, 30160, 35081, 37765
        32,      1550, 33305, 31727, 33200, 29206, 33686, 36884, 33224, 31785, 33308, 30158, 35079, 37780
        33,      1600, 33337, 31691, 33205, 29208, 33683, 36878, 33253, 31749, 33315, 30157, 35077, 37794
        34,      1650, 33368, 31667, 33198, 29209, 33680, 36872, 33283, 31719, 33315, 30156, 35075, 37809
        35,      1700, 33401, 31632, 33201, 29211, 33677, 36865, 33314, 31684, 33319, 30154, 35073, 37824
        36,      1750, 33434, 31602, 33198, 29212, 33675, 36858, 33346, 31652, 33319, 30153, 35071, 37839
        37,      1800, 33467, 31578, 33189, 29214, 33672, 36850, 33378, 31621, 33318, 30152, 35068, 37856
        38,      1850, 33502, 31540, 33193, 29215, 33670, 36843, 33411, 31587, 33319, 30150, 35065, 37872
        39,      1900, 33537, 31518, 33180, 29217, 33668, 36835, 33445, 31557, 33315, 30149, 35062, 37889
        40,      1950, 33572, 31488, 33175, 29219, 33666, 36827, 33479, 31525, 33312, 30148, 35059, 37907
        41,      2000, 33609, 31456, 33171, 29220, 33665, 36818, 33514, 31493, 33309, 30146, 35056, 37924
        42,      2050, 33645, 31436, 33155, 29222, 33664, 36809, 33550, 31465, 33302, 30145, 35053, 37943
        43,      2100, 33683, 31402, 33152, 29224, 33663, 36800, 33587, 31433, 33297, 30143, 35049, 37962
        44,      2150, 33720, 31380, 33137, 29226, 33663, 36790, 33624, 31404, 33289, 30142, 35045, 37981
        45,      2200, 33758, 31355, 33124, 29228, 33662, 36780, 33661, 31376, 33280, 30141, 35041, 38001
        46,      2250, 33798, 31324, 33115, 29229, 33663, 36770, 33699, 31346, 33272, 30139, 35037, 38020
        47,      2300, 33836, 31306, 33095, 29231, 33663, 36759, 33738, 31320, 33259, 30138, 35033, 38041
        48,      2350, 33876, 31279, 33083, 29233, 33664, 36749, 33777, 31291, 33248, 30137, 35028, 38062
        49,      2400, 33917, 31254, 33068, 29235, 33665, 36737, 33817, 31263, 33236, 30135, 35023, 38082
        50,      2450, 33957, 31237, 33045, 29237, 33667, 36726, 33857, 31240, 33220, 30134, 35018, 38104
        51,      2500, 33998, 31208, 33033, 29239, 33669, 36714, 33898, 31211, 33208, 30133, 35013, 38126
        52,      2550, 34039, 31192, 33009, 29241, 33671, 36702, 33940, 31188, 33189, 30131, 35008, 38148
        53,      2600, 34081, 31171, 32988, 29243, 33674, 36689, 33981, 31163, 33173, 30130, 35002, 38171
        54,      2650, 34123, 31147, 32971, 29245, 33678, 36677, 34023, 31139, 33155, 30129, 34996, 38194
        55,      2700, 34164, 31135, 32941, 29247, 33681, 36663, 34066, 31117, 33134, 30128, 34990, 38217
        56,      2750, 34207, 31111, 32922, 29249, 33686, 36650, 34109, 31094, 33115, 30127, 34983, 38241
        57,      2800, 34250, 31095, 32896, 29250, 33691, 36636, 34152, 31073, 33092, 30125, 34977, 38264
        58,      2850, 34292, 31082, 32866, 29252, 33696, 36622, 34195, 31053, 33069, 30124, 34970, 38289
        59,      2900, 34336, 31059, 32846, 29254, 33702, 36608, 34239, 31032, 33046, 30123, 34963, 38313
        60,      2950, 34379, 31051, 32811, 29256, 33708, 36593, 34283, 31013, 33021, 30122, 34956, 38338
        61,      3000, 34422, 31034, 32785, 29258, 33715, 36578, 34327, 30996, 32994, 30121, 34948, 38363
        62,      3050, 34466, 31019, 32756, 29260, 33722, 36563, 34372, 30976, 32969, 30120, 34941, 38388
        63,      3100, 34509, 31013, 32720, 29262, 33730, 36547, 34417, 30963, 32938, 30119, 34933, 38414
        64,      3150, 34553, 30995, 32693, 29264, 33739, 36532, 34462, 30944, 32912, 30118, 34924, 38440
        65,      3200, 34597, 30988, 32657, 29266, 33748, 36515, 34507, 30931, 32879, 30118, 34916, 38465
        66,      3250, 34640, 30980, 32622, 29268, 33758, 36499, 34552, 30917, 32849, 30117, 34907, 38492
        67,      3300, 34684, 30967, 32591, 29270, 33768, 36482, 34597, 30903, 32817, 30116, 34898, 38518
        68,      3350, 34728, 30965, 32550, 29272, 33779, 36465, 34643, 30892, 32782, 30116, 34889, 38545
        69,      3400, 34772, 30956, 32514, 29273, 33790, 36448, 34688, 30881, 32748, 30115, 34880, 38572
        70,      3450, 34815, 30949, 32478, 29275, 33803, 36430, 34734, 30870, 32713, 30114, 34870, 38598
        71,      3500, 34858, 30951, 32433, 29277, 33815, 36413, 34779, 30863, 32675, 30114, 34860, 38625
        72,      3550, 34902, 30940, 32400, 29279, 33829, 36395, 34824, 30853, 32640, 30113, 34850, 38653
        73,      3600, 34945, 30944, 32354, 29281, 33843, 36376, 34870, 30848, 32600, 30113, 34840, 38680
        74,      3650, 34988, 30942, 32313, 29282, 33858, 36358, 34915, 30842, 32561, 30113, 34829, 38707
        75,      3700, 35031, 30938, 32274, 29284, 33873, 36339, 34960, 30836, 32521, 30112, 34818, 38735
        76,      3750, 35073, 30945, 32224, 29286, 33889, 36320, 35005, 30834, 32478, 30112, 34807, 38762
        77,      3800, 35115, 30942, 32185, 29287, 33906, 36301, 35050, 30830, 32437, 30112, 34796, 38790
        78,      3850, 35157, 30948, 32138, 29289, 33924, 36281, 35095, 30829, 32393, 30112, 34784, 38817
        79,      3900, 35199, 30954, 32090, 29290, 33942, 36261, 35140, 30829, 32349, 30112, 34772, 38845
        80,      3950, 35241, 30955, 32046, 29292, 33960, 36241, 35184, 30829, 32305, 30112, 34760, 38873
        81,      4000, 35281, 30966, 31995, 29293, 33980, 36221, 35228, 30832, 32258, 30113, 34748, 38901
        82,      4050, 35322, 30973, 31947, 29295, 34000, 36201, 35272, 30835, 32211, 30113, 34735, 38929
        83,      4100, 35362, 30979, 31901, 29296, 34021, 36181, 35315, 30838, 32164, 30113, 34723, 38956
        84,      4150, 35401, 30996, 31845, 29297, 34043, 36160, 35358, 30846, 32113, 30114, 34709, 38984
        85,      4200, 35441, 31001, 31800, 29299, 34065, 36139, 35401, 30850, 32067, 30114, 34696, 39012
        86,      4250, 35480, 31017, 31745, 29300, 34089, 36118, 35444, 30860, 32014, 30115, 34683, 39039
        87,      4300, 35518, 31032, 31691, 29301, 34112, 36097, 35485, 30868, 31964, 30115, 34669, 39067
        88,      4350, 35556, 31043, 31643, 29302, 34137, 36076, 35527, 30878, 31912, 30116, 34655, 39094
        89,      4400, 35592, 31065, 31584, 29303, 34162, 36054, 35568, 30890, 31860, 30117, 34641, 39121
        90,      4450, 35629, 31079, 31533, 29304, 34188, 36033, 35609, 30903, 31806, 30118, 34626, 39148
        91,      4500, 35665, 31098, 31478, 29305, 34215, 36011, 35649, 30916, 31753, 30119, 34612, 39175
        92,      4550, 35700, 31121, 31419, 29306, 34243, 35989, 35688, 30933, 31696, 30120, 34597, 39202
        93,      4600, 35735, 31137, 31368, 29307, 34271, 35967, 35727, 30947, 31643, 30121, 34582, 39228
        94,      4650, 35769, 31164, 31307, 29307, 34300, 35945, 35766, 30967, 31586, 30123, 34567, 39254
        95,      4700, 35802, 31187, 31250, 29308, 34330, 35924, 35803, 30986, 31529, 30124, 34551, 39281
        96,      4750, 35835, 31209, 31196, 29309, 34360, 35901, 35840, 31005, 31473, 30126, 34536, 39306
        97,      4800, 35866, 31240, 31133, 29309, 34391, 35879, 35877, 31028, 31413, 30127, 34520, 39332
        98,      4850, 35897, 31264, 31078, 29310, 34423, 35857, 35913, 31049, 31356, 30129, 34504, 39358
        99,      4900, 35927, 31294, 31018, 29310, 34456, 35835, 35948, 31075, 31296, 30131, 34488, 39382
       100,      4950, 35956, 31326, 30955, 29310, 34489, 35813, 35982, 31100, 31236, 30133, 34471, 39407
       101,      5000, 35985, 31353, 30900, 29310, 34523, 35790, 36015, 31126, 31177, 30135, 34454, 39432
       102,      5050, 36012, 31390, 30835, 29311, 34558, 35768, 36048, 31155, 31115, 30137, 34438, 39456
       103,      5100, 36038, 31422, 30776, 29311, 34594, 35746, 36080, 31184, 31054, 30139, 34421, 39480
       104,      5150, 36064, 31455, 30717, 29311, 34630, 35723, 36111, 31214, 30993, 30141, 34404, 39503
       105,      5200, 36089, 31496, 30651, 29310, 34667, 35701, 36141, 31248, 30930, 30144, 34386, 39526
       106,      5250, 36112, 31528, 30594, 29310, 34705, 35679, 36170, 31279, 30868, 30146, 34369, 39549
       107,      5300, 36135, 31570, 30529, 29310, 34743, 35657, 36199, 31315, 30805, 30149, 34351, 39570
       108,      5350, 36157, 31611, 30467, 29310, 34782, 35635, 36226, 31351, 30741, 30152, 34333, 39593
       109,      5400, 36178, 31648, 30408, 29309, 34822, 35613, 36253, 31387, 30679, 30154, 34315, 39614
       110,      5450, 36197, 31695, 30341, 29309, 34863, 35591, 36278, 31427, 30614, 30157, 34297, 39634
       111,      5500, 36216, 31736, 30281, 29308, 34903, 35569, 36303, 31465, 30550, 30160, 34279, 39655
       112,      5550, 36233, 31781, 30218, 29307, 34945, 35547, 36326, 31506, 30486, 30164, 34261, 39674
       113,      5600, 36249, 31830, 30152, 29306, 34988, 35526, 36348, 31550, 30420, 30167, 34242, 39694
       114,      5650, 36265, 31873, 30093, 29305, 35031, 35504, 36370, 31591, 30357, 30170, 34224, 39713
       115,      5700, 36278, 31924, 30027, 29304, 35075, 35483, 36390, 31638, 30290, 30174, 34205, 39731
       116,      5750, 36291, 31974, 29964, 29303, 35119, 35462, 36409, 31683, 30226, 30178, 34186, 39748
       117,      5800, 36303, 32021, 29904, 29302, 35164, 35441, 36427, 31730, 30161, 30181, 34167, 39765
       118,      5850, 36313, 32078, 29836, 29301, 35210, 35420, 36444, 31779, 30095, 30185, 34148, 39782
       119,      5900, 36322, 32127, 29778, 29299, 35256, 35399, 36460, 31829, 30030, 30189, 34129, 39798
       120,      5950, 36330, 32183, 29713, 29298, 35303, 35379, 36474, 31879, 29965, 30193, 34110, 39813
       121,      6000, 36337, 32241, 29649, 29296, 35350, 35359, 36487, 31933, 29898, 30197, 34091, 39827
       122,      6050, 36342, 32292, 29590, 29294, 35398, 35339, 36499, 31985, 29835, 30202, 34071, 39841
       123,      6100, 36346, 32355, 29523, 29292, 35447, 35319, 36510, 32041, 29768, 30206, 34052, 39854
       124,      6150, 36349, 32411, 29464, 29290, 35496, 35300, 36520, 32096, 29703, 30211, 34032, 39867
       125,      6200, 36351, 32470, 29402, 29288, 35546, 35280, 36528, 32153, 29638, 30215, 34013, 39878
       126,      6250, 36350, 32534, 29338, 29286, 35596, 35262, 36535, 32212, 29572, 30220, 33993, 39889
       127,      6300, 36349, 32592, 29279, 29284, 35646, 35243, 36541, 32270, 29508, 30225, 33974, 39900
       128,      6350, 36347, 32657, 29217, 29281, 35698, 35225, 36545, 32331, 29443, 30230, 33954, 39909
       129,      6400, 36342, 32722, 29155, 29279, 35749, 35207, 36548, 32393, 29378, 30235, 33935, 39918
       130,      6450, 36337, 32783, 29098, 29276, 35801, 35189, 36549, 32455, 29315, 30240, 33915, 39926
       131,      6500, 36330, 32854, 29034, 29273, 35854, 35172, 36550, 32520, 29250, 30246, 33895, 39933
       132,      6550, 36322, 32918, 28977, 29270, 35907, 35155, 36548, 32584, 29186, 30251, 33876, 39939
       133,      6600, 36312, 32985, 28919, 29267, 35961, 35138, 36546, 32650, 29123, 30257, 33856, 39945
       134,      6650, 36301, 33058, 28856, 29264, 36014, 35122, 36542, 32718, 29059, 30262, 33836, 39949
       135,      6700, 36288, 33122, 28803, 29261, 36069, 35106, 36536, 32784, 28998, 30268, 33817, 39953
       136,      6750, 36274, 33198, 28741, 29258, 36123, 35091, 36529, 32855, 28934, 30274, 33797, 39956
       137,      6800, 36259, 33267, 28687, 29254, 36178, 35076, 36521, 32924, 28874, 30280, 33778, 39958
       138,      6850, 36242, 33338, 28631, 29251, 36234, 35061, 36511, 32996, 28812, 30286, 33758, 39959
       139,      6900, 36223, 33415, 28573, 29247, 36289, 35047, 36500, 33068, 28751, 30292, 33739, 39959
       140,      6950, 36203, 33486, 28521, 29243, 36345, 35034, 36487, 33141, 28691, 30298, 33719, 39959
       141,      7000, 36181, 33562, 28465, 29239, 36402, 35020, 36473, 33214, 28632, 30305, 33700, 39957
       142,      7050, 36158, 33639, 28410, 29235, 36458, 35008, 36457, 33291, 28571, 30311, 33681, 39955
       143,      7100, 36134, 33712, 28361, 29231, 36515, 34995, 36440, 33364, 28515, 30318, 33662, 39951
       144,      7150, 36107, 33793, 28306, 29227, 36572, 34984, 36421, 33443, 28455, 30325, 33643, 39946
       145,      7200, 36080, 33869, 28256, 29222, 36629, 34972, 36400, 33519, 28400, 30332, 33624, 39941
       146,      7250, 36051, 33946, 28207, 29218, 36687, 34962, 36378, 33598, 28343, 30338, 33605, 39934
       147,      7300, 36020, 34029, 28154, 29213, 36744, 34952, 36355, 33678, 28287, 30345, 33586, 39927
       148,      7350, 35988, 34105, 28109, 29209, 36802, 34942, 36330, 33757, 28233, 30353, 33568, 39918
       149,      7400, 35954, 34188, 28059, 29204, 36860, 34933, 36303, 33838, 28178, 30360, 33550, 39909
       150,      7450, 35918, 34269, 28012, 29199, 36918, 34925, 36275, 33920, 28125, 30367, 33531, 39898
       151,      7500, 35881, 34348, 27969, 29194, 36976, 34917, 36245, 34001, 28073, 30374, 33513, 39887
       152,      7550, 35843, 34434, 27921, 29188, 37034, 34909, 36213, 34085, 28021, 30382, 33495, 39874
       153,      7600, 35803, 34514, 27880, 29183, 37093, 34903, 36181, 34168, 27971, 30389, 33477, 39860
       154,      7650, 35761, 34597, 27837, 29178, 37151, 34896, 36146, 34251, 27922, 30397, 33460, 39845
       155,      7700, 35718, 34683, 27793, 29172, 37209, 34891, 36110, 34338, 27872, 30405, 33442, 39830
       156,      7750, 35673, 34764, 27756, 29167, 37268, 34886, 36072, 34421, 27826, 30413, 33425, 39813
       157,      7800, 35627, 34852, 27714, 29161, 37326, 34882, 36033, 34509, 27778, 30420, 33408, 39795
       158,      7850, 35579, 34935, 27677, 29155, 37384, 34879, 35992, 34594, 27733, 30428, 33391, 39776
       159,      7900, 35530, 35019, 27641, 29149, 37442, 34876, 35949, 34682, 27689, 30436, 33375, 39755
       160,      7950, 35478, 35107, 27603, 29143, 37500, 34873, 35905, 34769, 27645, 30445, 33358, 39734
       161,      8000, 35426, 35191, 27570, 29137, 37558, 34872, 35859, 34857, 27603, 30453, 33342, 39712
       162,      8050, 35372, 35278, 27537, 29130, 37616, 34871, 35812, 34945, 27562, 30461, 33327, 39688
       163,      8100, 35316, 35366, 27503, 29124, 37674, 34871, 35763, 35035, 27522, 30469, 33311, 39663
       164,      8150, 35259, 35449, 27476, 29117, 37731, 34872, 35713, 35123, 27484, 30478, 33296, 39637
       165,      8200, 35201, 35539, 27443, 29111, 37788, 34873, 35661, 35213, 27446, 30486, 33281, 39610
       166,      8250, 35140, 35625, 27417, 29104, 37845, 34875, 35607, 35302, 27410, 30495, 33266, 39583
       167,      8300, 35079, 35710, 27391, 29097, 37902, 34878, 35552, 35392, 27375, 30503, 33251, 39553
       168,      8350, 35016, 35801, 27363, 29090, 37958, 34881, 35495, 35483, 27341, 30512, 33237, 39523
       169,      8400, 34951, 35884, 27343, 29083, 38014, 34886, 35437, 35573, 27310, 30521, 33223, 39491
       170,      8450, 34885, 35975, 27318, 29076, 38070, 34891, 35377, 35664, 27279, 30529, 33210, 39458
       171,      8500, 34817, 36061, 27298, 29068, 38126, 34897, 35315, 35756, 27249, 30538, 33197, 39425
       172,      8550, 34748, 36147, 27280, 29061, 38181, 34903, 35252, 35845, 27222, 30547, 33184, 39390
       173,      8600, 34678, 36236, 27260, 29054, 38235, 34911, 35188, 35938, 27194, 30556, 33171, 39353
       174,      8650, 34606, 36322, 27245, 29046, 38289, 34919, 35122, 36028, 27170, 30565, 33159, 39316
       175,      8700, 34532, 36408, 27231, 29038, 38343, 34928, 35054, 36119, 27146, 30574, 33147, 39278
       176,      8750, 34458, 36497, 27216, 29031, 38396, 34937, 34985, 36211, 27124, 30583, 33136, 39238
       177,      8800, 34382, 36581, 27207, 29023, 38449, 34948, 34915, 36301, 27104, 30592, 33125, 39197
